(1541517864.180304) can0 242#5280FFFFFFFFFD
(1541517864.180309) can0 29C#0000FFFFFFFFFFFF
(1541517864.180310) can0 186#5D2E2E52E5FFF9
(1541517864.180311) can0 18A#2E500006B600
(1541517864.180312) can0 1F6#1E2081FF80FEFFFE
(1541517864.180314) can0 2C6#FFFFFFFFFFF0
(1541517864.180316) can0 354#0000000000000000
(1541517864.180317) can0 760#037F221200000000
(1541517864.180319) can0 740#03224B1000000000
(1541517864.180320) can0 760#037F221200000000
(1541517864.180321) can0 12E#C680007FE0FFFF00
(1541517864.180322) can0 090#00000000
(1541517864.180323) can0 0C6#7FCC80007FFFA80E
(1541517864.180324) can0 29A#00000000000002FD
(1541517864.180326) can0 1F6#1E2081FF80FEFFFE
(1541517864.180327) can0 186#5D522E52E5FFF9
(1541517864.180329) can0 18A#2E500006B600
(1541517864.180330) can0 2B7#00E0FFFE01
(1541517864.180331) can0 740#03224B1100000000
(1541517864.180332) can0 575#13E4
(1541517864.180333) can0 350#C715FA8614986485
(1541517864.180335) can0 55D#00D5600091A00000
(1541517864.180336) can0 760#04624B1100000000
(1541517864.180338) can0 12E#C680007FE0FFFF00
(1541517864.180339) can0 090#00000000
(1541517864.200974) can0 0C6#7FCC80147FFFAAF8
(1541517864.200980) can0 217#FEFFF8000000C0
(1541517864.200981) can0 1F6#1E2081FF80FEFFFE
(1541517864.200983) can0 186#5D2E2E52E5FFF9
(1541517864.200984) can0 18A#2E500006B600
(1541517864.200985) can0 242#5280FFFFFFFFFD
(1541517864.200987) can0 29C#0000FFFFFFFFFFFF
(1541517864.200989) can0 2C6#FFFFFFFFFFF0
(1541517864.200990) can0 352#5C000000
(1541517864.200991) can0 552#13E4
(1541517864.200992) can0 12E#C67FFF7FE0FFFF00
(1541517864.200993) can0 090#00000000
(1541517864.200995) can0 0C6#7FCB7FEC7FFFAC20
(1541517864.200996) can0 29A#00000000000003FC
(1541517864.200997) can0 1F6#1E2081FF80FEFFFE
(1541517864.200998) can0 186#5D622E52E5FFF9
(1541517864.200999) can0 18A#2E500006B600
(1541517864.201001) can0 2B7#00E0FFFE01
(1541517864.201002) can0 5D7#000003252890DC
(1541517864.201003) can0 5DE#0508000000000002
(1541517864.201004) can0 653#00500800
(1541517864.201006) can0 12E#C67FFF7FE0FFFF00
(1541517864.201007) can0 090#00000000
(1541517864.201008) can0 0C6#7FCC80007FFFAE08
(1541517864.201009) can0 217#FEFFF8000000C0
(1541517864.201010) can0 242#5280FFFFFFFFFD
(1541517864.217831) can0 29C#0000FFFFFFFFFFFF
(1541517864.217836) can0 186#5D2E2E52E5FFF9
(1541517864.217838) can0 18A#2E500006B600
(1541517864.217839) can0 1F6#1E2081FF80FEFFFE
(1541517864.217841) can0 2C6#FFFFFFFFFFF0
(1541517864.217842) can0 354#0000000000000000
(1541517864.217843) can0 740#03224B3600000000
(1541517864.217844) can0 673#00184F4F503200
(1541517864.217845) can0 564#D580
(1541517864.217846) can0 12E#C780007FE0FFFF00
(1541517864.217847) can0 090#00000000
(1541517864.217849) can0 0C6#7FCB80007FFFB007
(1541517864.217850) can0 29A#00000000000004FB
(1541517864.217851) can0 1F6#1E2081FF80FEFFFE
(1541517864.217852) can0 186#5D522E52E5FFF9
(1541517864.217853) can0 18A#2E500006B600
(1541517864.217855) can0 2B7#00E0FFFE01
(1541517864.217856) can0 666#7D000000
(1541517864.217857) can0 66A#2FFF600101C01F00
(1541517864.217858) can0 511#00DD8BF9B01387
(1541517864.217860) can0 5DA#FF7100004EFFFF00
(1541517864.217861) can0 648#FFFFF07FFE7FFE00
(1541517864.217862) can0 65C#FEFF
(1541517864.217863) can0 657#0000
(1541517864.217864) can0 760#04624B367F000000
(1541517864.217865) can0 500#024A34D53E
(1541517864.233841) can0 740#03224B0200000000
(1541517864.233845) can0 12E#C780007FE0FFFF00
(1541517864.233846) can0 090#00000000
(1541517864.233848) can0 0C6#7FCB800A7FFFB2FB
(1541517864.233849) can0 217#FEFFF8000000C0
(1541517864.233850) can0 242#5280FFFFFFFFFD
(1541517864.233851) can0 29C#0000FFFFFFFFFFFF
(1541517864.233852) can0 186#5D302E52E5FFF9
(1541517864.233853) can0 18A#2E500006B600
(1541517864.233854) can0 1F6#1E2081FF80FEFFFE
(1541517864.233855) can0 2C6#FFFFFFFFFFF0
(1541517864.233856) can0 352#5C000000
(1541517864.233858) can0 2BC#94C08234E4B0958B
(1541517864.233859) can0 760#05624B0200000000
(1541517864.233860) can0 45C#00000000
(1541517864.233861) can0 4AC#80
(1541517864.233862) can0 5DF#0084
(1541517864.233863) can0 740#0322012F00000000
(1541517864.233864) can0 12E#C780007FE0FFFF00
(1541517864.233865) can0 090#00000000
(1541517864.233866) can0 0C6#7FCB7FEC7FFFB418
(1541517864.233868) can0 29A#00000000000005FA
(1541517864.233868) can0 1F6#1E2081FF80FEFFFE
(1541517864.233869) can0 186#5D522E52E5FFF9
(1541517864.233870) can0 18A#2E500006B600
(1541517864.233871) can0 2B7#00E0FFFE01
(1541517864.253852) can0 4F8#4A1030FFFF03FF00
(1541517864.253861) can0 760#0462012F84000000
(1541517864.253862) can0 740#03224B0100000000
(1541517864.253863) can0 12E#C780007FE0FFFF00
(1541517864.253865) can0 090#00000000
(1541517864.253866) can0 0C6#7FCB800A7FFFB6F7
(1541517864.253867) can0 217#FEFFF8000000C0
(1541517864.253869) can0 242#5280FFFFFFFFFD
(1541517864.253870) can0 29C#0000FFFFFFFFFFFF
(1541517864.253871) can0 186#5D2E2E52E5FFF9
(1541517864.253872) can0 18A#2E500006B600
(1541517864.253873) can0 1F6#1E2081FF80FEFFFE
(1541517864.253875) can0 2C6#FFFFFFFFFFF0
(1541517864.253876) can0 354#0000000000000000
(1541517864.253877) can0 3B7#FFFAFFCFFE40
(1541517864.253878) can0 760#05624B0100000000
(1541517864.253879) can0 740#03224B3500000000
(1541517864.253880) can0 12E#C680007FE0FFFF00
(1541517864.253881) can0 090#00000000
(1541517864.253882) can0 0C6#7FCB7FF67FFFB80A
(1541517864.253883) can0 29A#00000000000006F9
(1541517864.253885) can0 1F6#1E2081FF80FEFFFE
(1541517864.253886) can0 186#5D602E52E5FFF9
(1541517864.253888) can0 18A#2E500006B600
(1541517864.253889) can0 2B7#00E0FFFE01
(1541517864.274536) can0 646#03FFFFFFFFFFFFF0
(1541517864.274545) can0 760#1008624B358CC020
(1541517864.274548) can0 12E#C680007FE0FFFF00
(1541517864.274549) can0 090#00000000
(1541517864.274551) can0 0C6#7FCB80007FFFBAFD
(1541517864.274553) can0 217#FEFFF8000000C0
(1541517864.274554) can0 242#5280FFFFFFFFFD
(1541517864.274555) can0 29C#0000FFFFFFFFFFFF
(1541517864.274557) can0 186#5D302E52E5FFF9
(1541517864.274558) can0 18A#2E500006B600
(1541517864.274559) can0 1F6#1E2081FF80FEFFFE
(1541517864.274560) can0 2C6#FFFFFFFFFFF0
(1541517864.274561) can0 352#5C000000
(1541517864.274562) can0 740#3000000000000000
(1541517864.274563) can0 760#2100000000000000
(1541517864.274564) can0 740#0322010000000000
(1541517864.274567) can0 12E#C680007FE0FFFF00
(1541517864.274568) can0 090#00000000
(1541517864.274569) can0 0C6#7FCB80147FFFBCE7
(1541517864.274570) can0 29A#00000000000007F8
(1541517864.274571) can0 1F6#1E2081FF80FEFFFE
(1541517864.274572) can0 186#5D522E52E5FFF9
(1541517864.274573) can0 18A#2E500006B600
(1541517864.274575) can0 2B7#00E0FFFE01
(1541517864.274578) can0 575#3FB4
(1541517864.291683) can0 760#056201007FCB0000
(1541517864.291690) can0 350#C715FA8614986485
(1541517864.291692) can0 55D#00D5600091A00000
(1541517864.291695) can0 740#03224B0700000000
(1541517864.291696) can0 12E#C680007FE0FFFF00
(1541517864.291697) can0 090#00000000
(1541517864.291699) can0 0C6#7FCB7FEC7FFFBE0E
(1541517864.291700) can0 242#5280FFFFFFFFFD
(1541517864.291702) can0 1F6#1E2081FF80FEFFFE
(1541517864.291703) can0 186#5D302E52E5FFF9
(1541517864.291704) can0 18A#2E500006B600
(1541517864.291705) can0 29C#0000FFFFFFFFFFFF
(1541517864.291706) can0 354#0000000000000000
(1541517864.291707) can0 217#FEFFF8000000C0
(1541517864.291709) can0 2C6#FFFFFFFFFFF0
(1541517864.291710) can0 552#3FB4
(1541517864.291711) can0 760#04624B077E000000
(1541517864.291713) can0 12E#C680007FE0FFFF00
(1541517864.291714) can0 090#00000000
(1541517864.291715) can0 0C6#7FCB80007FFFA017
(1541517864.291716) can0 29A#00000000000008F7
(1541517864.291717) can0 1F6#1E2081FF80FEFFFE
(1541517864.291719) can0 186#5D4E2E52E5FFF9
(1541517864.291720) can0 18A#2E500006B600
(1541517864.291721) can0 2B7#00E0FFFE01
(1541517864.291723) can0 5D7#000003252890DC
(1541517864.311399) can0 740#03224B0400000000
(1541517864.311403) can0 5DE#0508000000000002
(1541517864.311404) can0 653#00500800
(1541517864.311405) can0 760#05624B0400000000
(1541517864.311406) can0 12E#C680007FE0FFFF00
(1541517864.311408) can0 090#00000000
(1541517864.311409) can0 0C6#7FCB80007FFFA215
(1541517864.311410) can0 242#5280FFFFFFFFFD
(1541517864.311411) can0 1F6#1E2081FF80FEFFFE
(1541517864.311412) can0 186#5D302E52E5FFF9
(1541517864.311413) can0 18A#2E500006B600
(1541517864.311415) can0 29C#0000FFFFFFFFFFFF
(1541517864.311416) can0 352#5C000000
(1541517864.311418) can0 217#FEFFF8000000C0
(1541517864.311419) can0 2C6#FFFFFFFFFFF0
(1541517864.311420) can0 740#03224B2400000000
(1541517864.311421) can0 673#00184F4F503200
(1541517864.311422) can0 564#EC80
(1541517864.311424) can0 12E#C780007FE0FFFF00
(1541517864.311425) can0 090#00000000
(1541517864.311426) can0 0C6#7FCB80007FFFA413
(1541517864.311427) can0 29A#00000000000009F6
(1541517864.311429) can0 2B7#00E0FFFE01
(1541517864.311430) can0 1F6#1E2081FF80FEFFFE
(1541517864.311431) can0 186#5D602E52E5FFF9
(1541517864.330194) can0 18A#2E500006B600
(1541517864.330198) can0 666#7D000000
(1541517864.330199) can0 66A#2FFF600101C01F00
(1541517864.330201) can0 511#001C54B21B206A
(1541517864.330202) can0 5DA#FF7100004EFFFF00
(1541517864.330203) can0 648#FFFFF07FFE7FFE00
(1541517864.330204) can0 65C#FEFF
(1541517864.330205) can0 657#0000
(1541517864.330207) can0 500#024A821FFB
(1541517864.330208) can0 760#05624B2407670000
(1541517864.330209) can0 12E#C780007FE0FFFF00
(1541517864.330210) can0 090#00000000
(1541517864.330212) can0 0C6#7FCB800A7FFFA607
(1541517864.330213) can0 242#5280FFFFFFFFFD
(1541517864.330214) can0 29C#0000FFFFFFFFFFFF
(1541517864.330216) can0 1F6#1E2081FF80FEFFFE
(1541517864.330217) can0 186#5D302E52E5FFF9
(1541517864.330218) can0 18A#2E500006B600
(1541517864.330219) can0 354#0000000000000000
(1541517864.330220) can0 217#FEFFF8000000C0
(1541517864.330221) can0 2C6#FFFFFFFFFFF0
(1541517864.330221) can0 740#03224B3900000000
(1541517864.330222) can0 2BC#946EE71081CEDDB1
(1541517864.330223) can0 45C#00000000
(1541517864.330224) can0 4AC#80
(1541517864.330225) can0 5DF#0084
(1541517864.330226) can0 12E#C680007FE0FFFF00
(1541517864.330227) can0 090#00000000
(1541517864.351152) can0 0C6#7FCB80007FFFA80F
(1541517864.351156) can0 29A#0000000000000AF5
(1541517864.351157) can0 2B7#00E0FFFE01
(1541517864.351159) can0 1F6#1E2081FF80FEFFFE
(1541517864.351160) can0 186#5D522E52E5FFF9
(1541517864.351161) can0 18A#2E500006B600
(1541517864.351162) can0 4F8#4A1030FFFF03FF00
(1541517864.351164) can0 760#04624B397E000000
(1541517864.351165) can0 740#03224B3700000000
(1541517864.351166) can0 12E#C680007FE0FFFF00
(1541517864.351167) can0 090#00000000
(1541517864.351168) can0 0C6#7FCB800A7FFFAA03
(1541517864.351169) can0 217#FEFFF8000000C0
(1541517864.351171) can0 242#5280FFFFFFFFFD
(1541517864.351172) can0 29C#0000FFFFFFFFFFFF
(1541517864.351174) can0 2C6#FFFFFFFFFFF0
(1541517864.351175) can0 352#5C000000
(1541517864.351176) can0 1F6#1E2081FF80FEFFFE
(1541517864.351177) can0 186#5D522E52E5FFF9
(1541517864.351178) can0 18A#2E500006B600
(1541517864.351178) can0 3B7#FFFAFFCFFE40
(1541517864.351179) can0 760#04624B377F000000
(1541517864.351180) can0 12E#C780007FE0FFFF00
(1541517864.351181) can0 090#00000000
(1541517864.351182) can0 0C6#7FCB7FEC7FFFAC20
(1541517864.371923) can0 29A#0000000000000BF4
(1541517864.371926) can0 2B7#00E0FFFE01
(1541517864.371927) can0 1F6#1E2081FF80FEFFFE
(1541517864.371929) can0 186#5D522E52E5FFF9
(1541517864.371930) can0 18A#2E500006B600
(1541517864.371931) can0 740#03224B0E00000000
(1541517864.371932) can0 760#04624B0E00000000
(1541517864.371933) can0 12E#C780007FE0FFFF00
(1541517864.371934) can0 090#00000000
(1541517864.371935) can0 0C6#7FCB80007FFFAE09
(1541517864.371937) can0 217#FEFFF8000000C0
(1541517864.371938) can0 242#5280FFFFFFFFFD
(1541517864.371939) can0 29C#0000FFFFFFFFFFFF
(1541517864.371940) can0 2C6#FFFFFFFFFFF0
(1541517864.371940) can0 354#0000000000000000
(1541517864.371941) can0 1F6#1E2081FF80FEFFFE
(1541517864.371942) can0 186#5D522E52E5FFF9
(1541517864.371942) can0 18A#2E500006B600
(1541517864.371943) can0 740#03224B0B00000000
(1541517864.371945) can0 12E#C780007FE0FFFF00
(1541517864.371945) can0 090#00000000
(1541517864.371946) can0 0C6#7FCB800A7FFFB0FD
(1541517864.371947) can0 29A#0000000000000CF3
(1541517864.371948) can0 2B7#00E0FFFE01
(1541517864.390975) can0 1F6#1E2081FF80FEFFFE
(1541517864.390977) can0 186#5D522E52E5FFF9
(1541517864.390979) can0 18A#2E500006B600
(1541517864.390980) can0 575#06B4
(1541517864.390981) can0 760#04624B0B7F000000
(1541517864.390982) can0 350#C715FA8614986485
(1541517864.390983) can0 55D#00D5600091A00000
(1541517864.390984) can0 740#03224B0C00000000
(1541517864.390986) can0 12E#C780007FE0FFFF00
(1541517864.390987) can0 090#00000000
(1541517864.390988) can0 0C6#7FCB7FF67FFFB210
(1541517864.390989) can0 217#FEFFF8000000C0
(1541517864.390990) can0 242#5280FFFFFFFFFD
(1541517864.390991) can0 29C#0000FFFFFFFFFFFF
(1541517864.390992) can0 2C6#FFFFFFFFFFF0
(1541517864.390993) can0 352#5C000000
(1541517864.390994) can0 1F6#1E2081FF80FEFFFE
(1541517864.390995) can0 186#5D2E2E52E5FFF9
(1541517864.390996) can0 18A#2E500006B600
(1541517864.390997) can0 552#06B4
(1541517864.390998) can0 760#05624B0C7FFE0000
(1541517864.390999) can0 12E#C680007FE0FFFF00
(1541517864.391000) can0 090#00000000
(1541517864.391002) can0 0C6#7FCC800A7FFFB4F8
(1541517864.391003) can0 29A#0000000000000DF2
(1541517864.391004) can0 2B7#00E0FFFE01
(1541517864.410547) can0 5D7#000003252890DC
(1541517864.410550) can0 1F6#1E2081FF80FEFFFE
(1541517864.410551) can0 186#5D542E52E5FFF9
(1541517864.410552) can0 18A#2E500006B600
(1541517864.410553) can0 740#03224B0600000000
(1541517864.410555) can0 5DE#0508000000000002
(1541517864.410556) can0 653#00500800
(1541517864.410558) can0 12E#C680007FE0FFFF00
(1541517864.410559) can0 090#00000000
(1541517864.410560) can0 0C6#7FCB80147FFFB6ED
(1541517864.410561) can0 217#FEFFF8000000C0
(1541517864.410563) can0 242#5280FFFFFFFFFD
(1541517864.410564) can0 29C#0000FFFFFFFFFFFF
(1541517864.410565) can0 2C6#FFFFFFFFFFF0
(1541517864.410566) can0 354#0000000000000000
(1541517864.410567) can0 1F6#1E2081FF80FEFFFE
(1541517864.410568) can0 186#5D522E52E5FFF9
(1541517864.410569) can0 18A#2E500006B600
(1541517864.410570) can0 673#00184F4F503200
(1541517864.410571) can0 760#07624B0600325289
(1541517864.410573) can0 564#D2C0
(1541517864.410575) can0 740#03224B0300000000
(1541517864.410576) can0 12E#C680007FE0FFFF00
(1541517864.410577) can0 090#00000000
(1541517864.410578) can0 0C6#7FCB7FEC7FFFB814
(1541517864.410579) can0 29A#0000000000000EF1
(1541517864.424362) can0 2B7#00E0FFFE01
(1541517864.424365) can0 666#7D000000
(1541517864.424367) can0 1F6#1E2081FF80FEFFFE
(1541517864.424368) can0 186#5D522E52E5FFF9
(1541517864.424369) can0 18A#2E500006B600
(1541517864.424370) can0 5DA#FF7100004EFFFF00
(1541517864.424372) can0 511#005B1D6B862D4D
(1541517864.424373) can0 648#FFFFF07FFE7FFE00
(1541517864.424374) can0 65C#FEFF
(1541517864.424375) can0 66A#2FFF600101C01F00
(1541517864.424376) can0 657#0000
(1541517864.424377) can0 500#02D377206B
(1541517864.424379) can0 760#05624B03FFFF0000
(1541517864.424380) can0 12E#C680007FE0FFFF00
(1541517864.424381) can0 090#00000000
(1541517864.424382) can0 0C6#7FCB80007FFFBAFD
(1541517864.424383) can0 217#FEFFF8000000C0
(1541517864.424384) can0 186#5D3E2E52E5FFF9
(1541517864.424386) can0 18A#2E500006B600
(1541517864.424423) can0 1F6#1E2081FF80FEFFFE
(1541517864.424424) can0 242#5280FFFFFFFFFD
(1541517864.424426) can0 29C#0000FFFFFFFFFFFF
(1541517864.424427) can0 2C6#FFFFFFFFFFF0
(1541517864.424428) can0 352#5C000000
(1541517864.424429) can0 740#03224B0000000000
(1541517864.424431) can0 2BC#94920AA3BA6AB8E8
(1541517864.443616) can0 45C#00000000
(1541517864.443619) can0 4AC#80
(1541517864.443621) can0 5DF#0084
(1541517864.443622) can0 12E#C780007FE0FFFF00
(1541517864.443623) can0 090#00000000
(1541517864.443624) can0 0C6#7FCB800A7FFFBCF1
(1541517864.443625) can0 29A#0000000000000FF0
(1541517864.443627) can0 1F6#1E2081FF80FEFFFE
(1541517864.443628) can0 186#5D522E52E5FFF9
(1541517864.443629) can0 18A#2E500006B600
(1541517864.443630) can0 2B7#00E0FFFE01
(1541517864.443632) can0 4F8#4A1030FFFF03FF00
(1541517864.443633) can0 760#05624B0000000000
(1541517864.443635) can0 740#03224BBB00000000
(1541517864.443637) can0 12E#C780007FE0FFFF00
(1541517864.443638) can0 090#00000000
(1541517864.443639) can0 0C6#7FCB7FEC7FFFBE0E
(1541517864.443640) can0 217#FEFFF8000000C0
(1541517864.443641) can0 186#5D2E2E52E5FFF9
(1541517864.443642) can0 18A#2E500006B600
(1541517864.443642) can0 1F6#1E2081FF80FEFFFE
(1541517864.443644) can0 242#5280FFFFFFFFFD
(1541517864.443645) can0 29C#0000FFFFFFFFFFFF
(1541517864.443647) can0 2C6#FFFFFFFFFFF0
(1541517864.443648) can0 354#0000000000000000
(1541517864.443650) can0 760#037F221200000000
(1541517864.469940) can0 3B7#FFFAFFCFFE40
(1541517864.469944) can0 740#03224B1000000000
(1541517864.469945) can0 760#037F221200000000
(1541517864.469946) can0 12E#C77FFF7FE0FFFF00
(1541517864.469948) can0 090#00000000
(1541517864.469949) can0 0C6#7FCB7FF67FFFA022
(1541517864.469950) can0 29A#00000000000000FF
(1541517864.469951) can0 1F6#1E2081FF80FEFFFE
(1541517864.469953) can0 186#5D522E52E5FFF9
(1541517864.469954) can0 18A#2E500006B600
(1541517864.469955) can0 2B7#00E0FFFE01
(1541517864.469956) can0 740#03224B1100000000
(1541517864.469958) can0 760#04624B1100000000
(1541517864.469959) can0 12E#C77FFF7FE0FFFF00
(1541517864.469960) can0 090#00000000
(1541517864.469961) can0 0C6#7FCB800A7FFFA20B
(1541517864.469962) can0 217#FEFFF8000000C0
(1541517864.469963) can0 186#5D2E2E52E5FFF9
(1541517864.469964) can0 18A#2E500006B600
(1541517864.469965) can0 1F6#1E2081FF80FEFFFE
(1541517864.469966) can0 242#5280FFFFFFFFFD
(1541517864.469966) can0 29C#0000FFFFFFFFFFFF
(1541517864.469967) can0 2C6#FFFFFFFFFFF0
(1541517864.469968) can0 352#5C000000
(1541517864.469969) can0 12E#C780007FE0FFFF00
(1541517864.490467) can0 090#00000000
(1541517864.490472) can0 0C6#7FCB800A7FFFA409
(1541517864.490474) can0 29A#00000000000001FE
(1541517864.490475) can0 2B7#00E0FFFE01
(1541517864.490476) can0 1F6#1E2081FF80FEFFFE
(1541517864.490477) can0 186#5D622E52E5FFF9
(1541517864.490478) can0 18A#2E500006B600
(1541517864.490479) can0 575#30C4
(1541517864.490480) can0 350#C715FA8614986485
(1541517864.490481) can0 55D#00D5600091A00000
(1541517864.490483) can0 12E#C780007FE0FFFF00
(1541517864.490484) can0 090#00000000
(1541517864.490485) can0 0C6#7FCB7FF67FFFA61C
(1541517864.490487) can0 217#FEFFF8000000C0
(1541517864.490488) can0 242#5280FFFFFFFFFD
(1541517864.490489) can0 186#5D302E52E5FFF9
(1541517864.490490) can0 18A#2E500006B600
(1541517864.490492) can0 1F6#1E2081FF80FEFFFE
(1541517864.490493) can0 29C#0000FFFFFFFFFFFF
(1541517864.490494) can0 2C6#FFFFFFFFFFF0
(1541517864.490495) can0 354#0000000000000000
(1541517864.490495) can0 740#03224B3600000000
(1541517864.490496) can0 552#30C4
(1541517864.490497) can0 12E#C780007FE0FFFF00
(1541517864.490498) can0 090#00000000
(1541517864.490499) can0 0C6#7FCC800A7FFFA804
(1541517864.510265) can0 29A#00000000000002FD
(1541517864.510268) can0 1F6#1E2081FF80FEFFFE
(1541517864.510269) can0 186#5D522E52E5FFF9
(1541517864.510270) can0 18A#2E500006B600
(1541517864.510271) can0 2B7#00E0FFFE01
(1541517864.510272) can0 5D7#000003252890DC
(1541517864.510273) can0 5DE#0508000000000002
(1541517864.510275) can0 760#04624B367F000000
(1541517864.510276) can0 653#00500800
(1541517864.510277) can0 740#03224B0200000000
(1541517864.510278) can0 12E#C780007FE0FFFF00
(1541517864.510279) can0 090#00000000
(1541517864.510281) can0 0C6#7FCC80007FFFAA0C
(1541517864.510282) can0 217#FEFFF8000000C0
(1541517864.510283) can0 186#5D302E52E5FFF9
(1541517864.510283) can0 18A#2E500006B600
(1541517864.510284) can0 1F6#1E2081FF80FEFFFE
(1541517864.510285) can0 242#5280FFFFFFFFFD
(1541517864.510286) can0 29C#0000FFFFFFFFFFFF
(1541517864.510286) can0 2C6#FFFFFFFFFFF0
(1541517864.510287) can0 352#5C000000
(1541517864.510288) can0 673#00184F4F503200
(1541517864.510289) can0 564#DCF0
(1541517864.510290) can0 760#05624B0200000000
(1541517864.510291) can0 12E#C67FFF7FE0FFFF00
(1541517864.510292) can0 090#00000000
(1541517864.522177) can0 0C6#7FCB80007FFFAC0B
(1541517864.522180) can0 29A#00000000000003FC
(1541517864.522182) can0 1F6#1E2081FF80FEFFFE
(1541517864.522183) can0 186#5D4E2E52E5FFF9
(1541517864.522184) can0 18A#2E500006B600
(1541517864.522185) can0 2B7#00E0FFFE01
(1541517864.522186) can0 666#7D000000
(1541517864.522187) can0 66A#2FFF600101C01F00
(1541517864.522188) can0 511#009AE624F13A30
(1541517864.522189) can0 5DA#FF7100004EFFFF00
(1541517864.522191) can0 648#FFFFF07FFE7FFE00
(1541517864.522192) can0 65C#FEFF
(1541517864.522193) can0 740#0322012F00000000
(1541517864.522194) can0 657#0000
(1541517864.522195) can0 500#0246E24B0C
(1541517864.522196) can0 12E#C67FFF7FE0FFFF00
(1541517864.522197) can0 090#00000000
(1541517864.522198) can0 0C6#7FCB800A7FFFAEFF
(1541517864.522198) can0 217#FEFFF8000000C0
(1541517864.522199) can0 186#5D302E52E5FFF9
(1541517864.522200) can0 18A#2E500006B600
(1541517864.522201) can0 1F6#1E2081FF80FEFFFE
(1541517864.522202) can0 242#5280FFFFFFFFFD
(1541517864.522203) can0 29C#0000FFFFFFFFFFFF
(1541517864.522204) can0 2C6#FFFFFFFFFFF0
(1541517864.522206) can0 354#0000000000000000
(1541517864.541934) can0 2BC#94DE241824F0F0A5
(1541517864.541938) can0 760#0462012F84000000
(1541517864.541939) can0 45C#00000000
(1541517864.541941) can0 4AC#80
(1541517864.541942) can0 5DF#0084
(1541517864.541943) can0 740#03224B0100000000
(1541517864.541945) can0 12E#C67FFF7FE0FFFF00
(1541517864.541946) can0 090#00000000
(1541517864.541947) can0 0C6#7FCB7FEC7FFFB01C
(1541517864.541948) can0 29A#00000000000004FB
(1541517864.541949) can0 1F6#1E2081FF80FEFFFE
(1541517864.541951) can0 186#5D602E52E5FFF9
(1541517864.541952) can0 18A#2E500006B600
(1541517864.541953) can0 2B7#00E0FFFE01
(1541517864.541954) can0 4F8#4A1030FFFF03FF00
(1541517864.541955) can0 760#05624B0100000000
(1541517864.541956) can0 12E#C67FFF7FE0FFFF00
(1541517864.541957) can0 090#00000000
(1541517864.541958) can0 0C6#7FCB80007FFFB205
(1541517864.541959) can0 217#FEFFF8000000C0
(1541517864.541960) can0 186#5D302E52E5FFF9
(1541517864.541960) can0 18A#2E500006B600
(1541517864.541961) can0 1F6#1E2081FF80FEFFFE
(1541517864.541962) can0 242#5280FFFFFFFFFD
(1541517864.541963) can0 29C#0000FFFFFFFFFFFF
(1541517864.541964) can0 2C6#FFFFFFFFFFF0
(1541517864.562154) can0 352#5C000000
(1541517864.562157) can0 740#03224B3500000000
(1541517864.562159) can0 3B7#FFFAFFCFFE40
(1541517864.562160) can0 12E#C67FFF7FE0FFFF00
(1541517864.562161) can0 090#00000000
(1541517864.562162) can0 0C6#7FCB800A7FFFB4F9
(1541517864.562164) can0 29A#00000000000005FA
(1541517864.562165) can0 1F6#1E2081FF80FEFFFE
(1541517864.562166) can0 186#5D522E52E5FFF9
(1541517864.562167) can0 18A#2E500006B600
(1541517864.562168) can0 2B7#00E0FFFE01
(1541517864.562169) can0 760#1008624B358CC020
(1541517864.562170) can0 740#3000000000000000
(1541517864.562171) can0 760#2100000000000000
(1541517864.562173) can0 12E#C67FFF7FE0FFFF00
(1541517864.562174) can0 090#00000000
(1541517864.562175) can0 0C6#7FCB80007FFFB601
(1541517864.562175) can0 217#FEFFF8000000C0
(1541517864.562176) can0 186#5D2E2E52E5FFF9
(1541517864.562177) can0 18A#2E500006B600
(1541517864.562178) can0 1F6#1E2081FF80FEFFFE
(1541517864.562178) can0 242#5280FFFFFFFFFD
(1541517864.562179) can0 29C#0000FFFFFFFFFFFF
(1541517864.562180) can0 2C6#FFFFFFFFFFF0
(1541517864.562181) can0 354#0000000000000000
(1541517864.584181) can0 740#0322010000000000
(1541517864.584184) can0 760#056201007FCB0000
(1541517864.584185) can0 12E#C780007FE0FFFF00
(1541517864.584187) can0 090#00000000
(1541517864.584188) can0 0C6#7FCC80007FFFB8FE
(1541517864.584189) can0 29A#00000000000006F9
(1541517864.584190) can0 1F6#1E2081FF80FEFFFE
(1541517864.584191) can0 186#5D4E2E52E5FFF9
(1541517864.584192) can0 18A#2E500006B600
(1541517864.584193) can0 2B7#00E0FFFE01
(1541517864.584195) can0 740#03224B0700000000
(1541517864.584196) can0 575#17F4
(1541517864.584197) can0 350#C715FA8614986485
(1541517864.584198) can0 55D#00D5600091A00000
(1541517864.584200) can0 217#FEFFF8000000C0
(1541517864.584200) can0 090#00000000
(1541517864.584202) can0 0C6#7FCC800A7FFFBAF2
(1541517864.584202) can0 12E#C780007FE0FFFF00
(1541517864.584203) can0 18A#2E500006B600
(1541517864.584204) can0 186#5D402E52E5FFF9
(1541517864.584205) can0 1F6#1E2081FF80FEFFFE
(1541517864.584205) can0 242#5280FFFFFFFFFD
(1541517864.584206) can0 29C#0000FFFFFFFFFFFF
(1541517864.584207) can0 2C6#FFFFFFFFFFF0
(1541517864.584208) can0 352#5C000000
(1541517864.601885) can0 552#17F4
(1541517864.601888) can0 760#04624B077E000000
(1541517864.601890) can0 740#03224B0400000000
(1541517864.601891) can0 12E#C780007FE0FFFF00
(1541517864.601892) can0 090#00000000
(1541517864.601893) can0 0C6#7FCB7FEC7FFFBC10
(1541517864.601894) can0 29A#00000000000007F8
(1541517864.601896) can0 1F6#1E2081FF80FEFFFE
(1541517864.601897) can0 186#5D522E52E5FFF9
(1541517864.601898) can0 18A#2E500006B600
(1541517864.601899) can0 2B7#00E0FFFE01
(1541517864.601900) can0 5D7#000003252890DC
(1541517864.601901) can0 5DE#0508000000000002
(1541517864.601902) can0 760#05624B0400000000
(1541517864.601903) can0 653#00500800
(1541517864.601904) can0 740#03224B2400000000
(1541517864.601905) can0 12E#C780007FE0FFFF00
(1541517864.601906) can0 090#00000000
(1541517864.601907) can0 0C6#7FCB80007FFFBEF9
(1541517864.601908) can0 217#FEFFF8000000C0
(1541517864.601908) can0 186#5D2E2E52E5FFF9
(1541517864.601909) can0 18A#2E500006B600
(1541517864.601910) can0 1F6#1E2081FF80FEFFFE
(1541517864.601911) can0 242#5280FFFFFFFFFD
(1541517864.601912) can0 29C#0000FFFFFFFFFFFF
(1541517864.620912) can0 2C6#FFFFFFFFFFF0
(1541517864.620915) can0 354#0000000000000000
(1541517864.620916) can0 673#00184F4F503200
(1541517864.620917) can0 564#FBB0
(1541517864.620919) can0 12E#C780007FE0FFFF00
(1541517864.620920) can0 090#00000000
(1541517864.620921) can0 0C6#7FCB80147FFFA003
(1541517864.620922) can0 29A#00000000000008F7
(1541517864.620923) can0 1F6#1E2081FF80FEFFFE
(1541517864.620924) can0 186#5D522E52E5FFF9
(1541517864.620925) can0 18A#2E500006B600
(1541517864.620927) can0 2B7#00E0FFFE01
(1541517864.620928) can0 666#7D000000
(1541517864.620929) can0 66A#2FFF600101C01F00
(1541517864.620931) can0 511#00D9AFDD5C4713
(1541517864.620932) can0 5DA#FF7100004EFFFF00
(1541517864.620933) can0 648#FFFFF07FFE7FFE00
(1541517864.620934) can0 65C#FEFF
(1541517864.620935) can0 657#0000
(1541517864.620935) can0 500#02DCF8C57F
(1541517864.620936) can0 760#05624B2407670000
(1541517864.620937) can0 740#03224B3900000000
(1541517864.620938) can0 12E#C780007FE0FFFF00
(1541517864.620938) can0 090#00000000
(1541517864.620939) can0 0C6#7FCC80147FFFA200
(1541517864.620940) can0 217#FEFFF8000000C0
(1541517864.620941) can0 186#5D2E2E52E5FFF9
(1541517864.640771) can0 18A#2E500006B600
(1541517864.640774) can0 1F6#1E2081FF80FEFFFE
(1541517864.640775) can0 242#5280FFFFFFFFFD
(1541517864.640777) can0 29C#0000FFFFFFFFFFFF
(1541517864.640778) can0 2C6#FFFFFFFFFFF0
(1541517864.640779) can0 352#5C000000
(1541517864.640780) can0 2BC#9435CB40104B9742
(1541517864.640781) can0 45C#00000000
(1541517864.640782) can0 4AC#80
(1541517864.640783) can0 5DF#0084
(1541517864.640784) can0 760#04624B397E000000
(1541517864.640785) can0 12E#C780007FE0FFFF00
(1541517864.640786) can0 090#00000000
(1541517864.640787) can0 0C6#7FCB7FE27FFFA432
(1541517864.640788) can0 29A#00000000000009F6
(1541517864.640789) can0 1F6#1E2081FF80FEFFFE
(1541517864.640790) can0 186#5D542E52E5FFF9
(1541517864.640791) can0 18A#2E500006B600
(1541517864.640791) can0 2B7#00E0FFFE01
(1541517864.640792) can0 740#03224B3700000000
(1541517864.640793) can0 4F8#4A1030FFFF03FF00
(1541517864.640794) can0 760#04624B377F000000
(1541517864.640794) can0 12E#C780007FE0FFFF00
(1541517864.640795) can0 090#00000000
(1541517864.640796) can0 0C6#7FCB80007FFFA611
(1541517864.640797) can0 217#FEFFF8000000C0
(1541517864.661210) can0 186#5D3E2E52E5FFF9
(1541517864.661212) can0 18A#2E500006B600
(1541517864.661214) can0 1F6#1E2081FF80FEFFFE
(1541517864.661215) can0 242#5280FFFFFFFFFD
(1541517864.661216) can0 29C#0000FFFFFFFFFFFF
(1541517864.661217) can0 2C6#FFFFFFFFFFF0
(1541517864.661218) can0 354#0000000000000000
(1541517864.661219) can0 740#03224B0E00000000
(1541517864.661220) can0 3B7#FFFAFFCFFE40
(1541517864.661222) can0 12E#C77FFF7FE0FFFF00
(1541517864.661223) can0 090#00000000
(1541517864.661224) can0 0C6#7FCB80007FFFA80F
(1541517864.661225) can0 29A#0000000000000AF5
(1541517864.661226) can0 1F6#1E2081FF80FEFFFE
(1541517864.661227) can0 186#5D522E52E5FFF9
(1541517864.661227) can0 18A#2E500006B600
(1541517864.661228) can0 2B7#00E0FFFE01
(1541517864.661229) can0 760#04624B0E00000000
(1541517864.661230) can0 740#03224B0B00000000
(1541517864.661230) can0 12E#C77FFF7FE0FFFF00
(1541517864.661231) can0 090#00000000
(1541517864.661232) can0 0C6#7FCB800A7FFFAA03
(1541517864.661232) can0 217#FEFFF8000000C0
(1541517864.661233) can0 186#5D2E2E52E5FFF9
(1541517864.661234) can0 18A#2E500006B600
(1541517864.681264) can0 1F6#1E2081FF80FEFFFE
(1541517864.681267) can0 242#5280FFFFFFFFFD
(1541517864.681269) can0 29C#0000FFFFFFFFFFFF
(1541517864.681270) can0 2C6#FFFFFFFFFFF0
(1541517864.681271) can0 352#5C000000
(1541517864.681272) can0 760#04624B0B7F000000
(1541517864.681273) can0 12E#C780007FE0FFFF00
(1541517864.681274) can0 090#00000000
(1541517864.681276) can0 0C6#7FCB7FF67FFFAC16
(1541517864.681277) can0 29A#0000000000000BF4
(1541517864.681279) can0 1F6#1E2081FF80FEFFFE
(1541517864.681280) can0 186#5D522E52E5FFF9
(1541517864.681281) can0 18A#2E500006B600
(1541517864.681282) can0 2B7#00E0FFFE01
(1541517864.681283) can0 740#03224B0C00000000
(1541517864.681284) can0 575#24F4
(1541517864.681284) can0 350#C715FA8614986485
(1541517864.681285) can0 55D#00D5600091A00000
(1541517864.681286) can0 760#05624B0C7FFE0000
(1541517864.681287) can0 12E#C780007FE0FFFF00
(1541517864.681287) can0 090#00000000
(1541517864.681288) can0 0C6#7FCB80007FFFAE09
(1541517864.681289) can0 217#FEFFF8000000C0
(1541517864.681290) can0 186#5D2E2E52E5FFF9
(1541517864.681290) can0 18A#2E500006B600
(1541517864.700917) can0 1F6#1E2081FF80FEFFFE
(1541517864.700920) can0 242#5280FFFFFFFFFD
(1541517864.700921) can0 29C#0000FFFFFFFFFFFF
(1541517864.700922) can0 2C6#FFFFFFFFFFF0
(1541517864.700923) can0 354#0000000000000000
(1541517864.700924) can0 740#03224B0600000000
(1541517864.700925) can0 552#24F4
(1541517864.700927) can0 760#07624B0600325289
(1541517864.700928) can0 12E#C680007FE0FFFF00
(1541517864.700929) can0 090#00000000
(1541517864.700930) can0 0C6#7FCB80007FFFB007
(1541517864.700931) can0 29A#0000000000000CF3
(1541517864.700933) can0 1F6#1E2081FF80FEFFFE
(1541517864.700934) can0 186#5D622E52E5FFF9
(1541517864.700935) can0 18A#2E500006B600
(1541517864.700936) can0 2B7#00E0FFFE01
(1541517864.700936) can0 5D7#000003252890DC
(1541517864.700937) can0 740#03224B0300000000
(1541517864.700938) can0 5DE#0508000000000002
(1541517864.700939) can0 653#00500800
(1541517864.700939) can0 760#05624B03FFFF0000
(1541517864.700940) can0 12E#C680007FE0FFFF00
(1541517864.700941) can0 090#00000000
(1541517864.700942) can0 0C6#7FCB800A7FFFB2FB
(1541517864.700942) can0 217#FEFFF8000000C0
(1541517864.700943) can0 186#5D302E52E5FFF9
(1541517864.718239) can0 18A#2E500006B600
(1541517864.718242) can0 1F6#1E2081FF80FEFFFE
(1541517864.718243) can0 242#5280FFFFFFFFFD
(1541517864.718244) can0 29C#0000FFFFFFFFFFFF
(1541517864.718245) can0 2C6#FFFFFFFFFFF0
(1541517864.718246) can0 352#5C000000
(1541517864.718247) can0 740#03224B0000000000
(1541517864.718249) can0 673#00184F4F503200
(1541517864.718250) can0 564#D810
(1541517864.718251) can0 12E#C680007FE0FFFF00
(1541517864.718252) can0 090#00000000
(1541517864.718252) can0 0C6#7FCB7FF67FFFB40E
(1541517864.718253) can0 29A#0000000000000DF2
(1541517864.718254) can0 1F6#1E2081FF80FEFFFE
(1541517864.718254) can0 186#5D4E2E52E5FFF9
(1541517864.718255) can0 18A#2E500006B600
(1541517864.718256) can0 2B7#00E0FFFE01
(1541517864.718257) can0 666#7D000000
(1541517864.718257) can0 66A#2FFF600101C01F00
(1541517864.718258) can0 511#00187896C754F6
(1541517864.718259) can0 5DA#FF7100004EFFFF00
(1541517864.718260) can0 648#FFFFF07FFE7FFE00
(1541517864.718260) can0 65C#FEFF
(1541517864.718261) can0 657#0000
(1541517864.718262) can0 500#02F9F1564F
(1541517864.718263) can0 760#05624B0000000000
(1541517864.731420) can0 740#03224BBB00000000
(1541517864.731423) can0 12E#C680007FE0FFFF00
(1541517864.731424) can0 090#00000000
(1541517864.731426) can0 0C6#7FCB80007FFFB601
(1541517864.731427) can0 217#FEFFF8000000C0
(1541517864.731428) can0 186#5D302E52E5FFF9
(1541517864.731429) can0 18A#2E500006B600
(1541517864.731430) can0 1F6#1E2081FF80FEFFFE
(1541517864.731431) can0 242#5280FFFFFFFFFD
(1541517864.731432) can0 29C#0000FFFFFFFFFFFF
(1541517864.731433) can0 2C6#FFFFFFFFFFF0
(1541517864.731435) can0 354#0000000000000000
(1541517864.731435) can0 760#037F221200000000
(1541517864.731436) can0 2BC#94352CC06204D2CA
(1541517864.731437) can0 45C#00000000
(1541517864.731437) can0 4AC#80
(1541517864.731438) can0 5DF#0084
(1541517864.731439) can0 740#03224B1000000000
(1541517864.731439) can0 760#037F221200000000
(1541517864.731440) can0 12E#C67FFF7FE0FFFF00
(1541517864.731441) can0 090#00000000
(1541517864.731442) can0 0C6#7FCB80007FFFB8FF
(1541517864.731442) can0 29A#0000000000000EF1
(1541517864.731443) can0 1F6#1E2081FF80FEFFFE
(1541517864.731444) can0 186#5D522E52E5FFF9
(1541517864.731444) can0 18A#2E500006B600
(1541517864.759894) can0 2B7#00E0FFFE01
(1541517864.759897) can0 740#03224B1100000000
(1541517864.759899) can0 4F8#4A1030FFFF03FF00
(1541517864.759900) can0 760#04624B1100000000
(1541517864.759901) can0 12E#C67FFF7FE0FFFF00
(1541517864.759902) can0 090#00000000
(1541517864.759903) can0 0C6#7FCB80147FFFBAE9
(1541517864.759905) can0 217#FEFFF8000000C0
(1541517864.759906) can0 186#5D2E2E52E5FFF9
(1541517864.759907) can0 18A#2E500006B600
(1541517864.759908) can0 1F6#1E2081FF80FEFFFE
(1541517864.759909) can0 242#5280FFFFFFFFFD
(1541517864.759910) can0 29C#0000FFFFFFFFFFFF
(1541517864.759911) can0 2C6#FFFFFFFFFFF0
(1541517864.759912) can0 352#5C000000
(1541517864.759913) can0 3B7#FFFAFFCFFE40
(1541517864.759914) can0 12E#C67FFF7FE0FFFF00
(1541517864.759915) can0 090#00000000
(1541517864.759916) can0 0C6#7FCB7FEC7FFFBC10
(1541517864.759917) can0 29A#0000000000000FF0
(1541517864.759918) can0 1F6#1E2081FF80FEFFFE
(1541517864.759919) can0 186#5D622E52E5FFF9
(1541517864.759920) can0 18A#2E500006B600
(1541517864.759921) can0 2B7#00E0FFFE01
(1541517864.759922) can0 646#03FFFFFFFFFFFFF0
(1541517864.779947) can0 12E#C67FFF7FE0FFFF00
(1541517864.779951) can0 090#00000000
(1541517864.779952) can0 0C6#7FCB800A7FFFBEEF
(1541517864.779954) can0 217#FEFFF8000000C0
(1541517864.779955) can0 186#5D302E52E5FFF9
(1541517864.779957) can0 18A#2E500006B600
(1541517864.779958) can0 1F6#1E2081FF80FEFFFE
(1541517864.779959) can0 242#5280FFFFFFFFFD
(1541517864.779960) can0 29C#0000FFFFFFFFFFFF
(1541517864.779962) can0 2C6#FFFFFFFFFFF0
(1541517864.779963) can0 354#0000000000000000
(1541517864.779965) can0 740#03224B3600000000
(1541517864.779966) can0 12E#C680007FE0FFFF00
(1541517864.779967) can0 090#00000000
(1541517864.779968) can0 0C6#7FCB7FF67FFFA022
(1541517864.779969) can0 29A#00000000000000FF
(1541517864.779970) can0 1F6#1E2081FF80FEFFFE
(1541517864.779971) can0 186#5D4E2E52E5FFF9
(1541517864.779972) can0 18A#2E500006B600
(1541517864.779973) can0 2B7#00E0FFFE01
(1541517864.779973) can0 575#1EF4
(1541517864.779975) can0 350#C715FA8614986485
(1541517864.779976) can0 760#04624B367F000000
(1541517864.779977) can0 55D#00D5600091A00000
(1541517864.779978) can0 740#03224B0200000000
(1541517864.800106) can0 12E#C680007FE0FFFF00
(1541517864.800108) can0 090#00000000
(1541517864.800109) can0 0C6#7FCB80007FFFA215
(1541517864.800111) can0 217#FEFFF8000000C0
(1541517864.800112) can0 186#5D302E52E5FFF9
(1541517864.800113) can0 18A#2E500006B600
(1541517864.800114) can0 1F6#1E2081FF80FEFFFE
(1541517864.800115) can0 242#5280FFFFFFFFFD
(1541517864.800116) can0 29C#0000FFFFFFFFFFFF
(1541517864.800117) can0 2C6#FFFFFFFFFFF0
(1541517864.800118) can0 352#5C000000
(1541517864.800119) can0 552#1EF4
(1541517864.800120) can0 760#05624B0200000000
(1541517864.800121) can0 12E#C680017FE0FFFF00
(1541517864.800122) can0 090#00000000
(1541517864.800122) can0 0C6#7FCB80147FFFA4FF
(1541517864.800123) can0 29A#00000000000001FE
(1541517864.800124) can0 18A#2E500006B600
(1541517864.800124) can0 186#5D4E2E52E5FFF9
(1541517864.800125) can0 1F6#1E2081FF80FEFFFE
(1541517864.800126) can0 2B7#00E0FFFE01
(1541517864.800127) can0 5D7#000003252890DC
(1541517864.800127) can0 740#0322012F00000000
(1541517864.800128) can0 5DE#0508000000000002
(1541517864.800130) can0 653#00400800
(1541517864.800131) can0 12E#C680017FE0FFFF00
(1541517864.800132) can0 090#00000000
(1541517864.813108) can0 0C6#7FCB7FEC7FFFA626
(1541517864.813111) can0 217#FEFFF8000000C0
(1541517864.813112) can0 186#5D402E52E5FFF9
(1541517864.813114) can0 18A#2E500006B600
(1541517864.813115) can0 1F6#1E2081FF80FEFFFE
(1541517864.813116) can0 242#5280FFFFFFFFFD
(1541517864.813117) can0 29C#0000FFFFFFFFFFFF
(1541517864.813118) can0 2C6#FFFFFFFFFFF0
(1541517864.813119) can0 354#0000000000000000
(1541517864.813120) can0 673#00184F4F503200
(1541517864.813121) can0 760#0462012F84000000
(1541517864.813123) can0 564#DD50
(1541517864.813124) can0 740#03224B0100000000
(1541517864.813125) can0 12E#C780007FE0FFFF00
(1541517864.813126) can0 090#00000000
(1541517864.813127) can0 0C6#7FCB80007FFFA80F
(1541517864.813128) can0 29A#00000000000002FD
(1541517864.813129) can0 1F6#1E2081FF80FEFFFE
(1541517864.813130) can0 186#5D522E52E5FFF9
(1541517864.813131) can0 18A#2E500006B600
(1541517864.813131) can0 2B7#00E0FFFE01
(1541517864.813132) can0 666#7D000000
(1541517864.813133) can0 66A#2FFF600101C01F00
(1541517864.813134) can0 511#0057414F3261D9
(1541517864.813134) can0 5DA#FF7100004EFFFF00
(1541517864.830975) can0 648#FFFFF07FFE7FFE00
(1541517864.830979) can0 65C#FEFF
(1541517864.830980) can0 657#0000
(1541517864.830981) can0 500#02F7B231EF
(1541517864.830983) can0 760#05624B0100000000
(1541517864.830984) can0 12E#C780007FE0FFFF00
(1541517864.830985) can0 090#00000000
(1541517864.830986) can0 0C6#7FCB80147FFFAAF9
(1541517864.830987) can0 217#FEFFF8000000C0
(1541517864.830988) can0 186#5D2E2E52E5FFF9
(1541517864.830990) can0 18A#2E500006B600
(1541517864.830991) can0 1F6#1E2081FF80FEFFFE
(1541517864.830992) can0 242#5280FFFFFFFFFD
(1541517864.830993) can0 29C#0000FFFFFFFFFFFF
(1541517864.830994) can0 2C6#FFFFFFFFFFF0
(1541517864.830995) can0 352#5C000000
(1541517864.830996) can0 740#03224B3500000000
(1541517864.830997) can0 2BC#9409FCB8EFC5516B
(1541517864.830998) can0 45C#00000000
(1541517864.830999) can0 4AC#80
(1541517864.831000) can0 5DF#0084
(1541517864.831000) can0 760#1008624B358CC020
(1541517864.831001) can0 12E#C780007FE0FFFF00
(1541517864.831002) can0 090#00000000
(1541517864.831003) can0 0C6#7FCB7FEC7FFFAC20
(1541517864.831004) can0 29A#00000000000003FC
(1541517864.831005) can0 1F6#1E2081FF80FEFFFE
(1541517864.850544) can0 186#5D522E52E5FFF9
(1541517864.850547) can0 18A#2E500006B600
(1541517864.850548) can0 2B7#00E0FFFE01
(1541517864.850549) can0 740#3000000000000000
(1541517864.850550) can0 760#2100000000000000
(1541517864.850551) can0 4F8#4A1030FFFF03FF00
(1541517864.850553) can0 740#0322010000000000
(1541517864.850554) can0 12E#C780007FE0FFFF00
(1541517864.850555) can0 090#00000000
(1541517864.850556) can0 0C6#7FCB80007FFFAE09
(1541517864.850557) can0 217#FEFFF8000000C0
(1541517864.850558) can0 186#5D302E52E5FFF9
(1541517864.850559) can0 18A#2E500006B600
(1541517864.850560) can0 1F6#1E2081FF80FEFFFE
(1541517864.850561) can0 242#5280FFFFFFFFFD
(1541517864.850561) can0 29C#0000FFFFFFFFFFFF
(1541517864.850562) can0 2C6#FFFFFFFFFFF0
(1541517864.850563) can0 354#0000000000000000
(1541517864.850564) can0 3B7#FFFAFFCFFE40
(1541517864.850564) can0 760#056201007FCB0000
(1541517864.850565) can0 740#03224B0700000000
(1541517864.850566) can0 12E#C680007FE0FFFF00
(1541517864.850567) can0 090#00000000
(1541517864.850569) can0 0C6#7FCB80007FFFB007
(1541517864.850570) can0 29A#00000000000004FB
(1541517864.874094) can0 1F6#1E2081FF80FEFFFE
(1541517864.874097) can0 186#5D4E2E52E5FFF9
(1541517864.874098) can0 18A#2E500006B600
(1541517864.874099) can0 2B7#00E0FFFE01
(1541517864.874101) can0 760#04624B077D000000
(1541517864.874102) can0 217#FEFFF8000000C0
(1541517864.874103) can0 090#00000000
(1541517864.874104) can0 0C6#7FCC800A7FFFB2FA
(1541517864.874105) can0 12E#C680007FE0FFFF00
(1541517864.874106) can0 186#5D3E2E52E5FFF9
(1541517864.874107) can0 18A#2E500006B600
(1541517864.874108) can0 1F6#1E2081FF80FEFFFE
(1541517864.874109) can0 242#5280FFFFFFFFFD
(1541517864.874110) can0 29C#0000FFFFFFFFFFFF
(1541517864.874111) can0 2C6#FFFFFFFFFFF0
(1541517864.874111) can0 352#5C000000
(1541517864.874112) can0 740#03224B0400000000
(1541517864.874113) can0 12E#C680007FE0FFFF00
(1541517864.874114) can0 090#00000000
(1541517864.874115) can0 0C6#7FCB7FF67FFFB40E
(1541517864.874116) can0 29A#00000000000005FA
(1541517864.874117) can0 1F6#1E2081FF80FEFFFE
(1541517864.874119) can0 186#5D542E52E5FFF9
(1541517864.874120) can0 18A#2E500006B600
(1541517864.874121) can0 2B7#00E0FFFE01
(1541517864.891614) can0 575#2CC4
(1541517864.891618) can0 350#C715FA8614986485
(1541517864.891619) can0 760#05624B0400000000
(1541517864.891620) can0 55D#00D5600091A00000
(1541517864.891621) can0 740#03224B2400000000
(1541517864.891622) can0 12E#C680007FE0FFFF00
(1541517864.891623) can0 090#00000000
(1541517864.891625) can0 0C6#7FCB7FE27FFFB620
(1541517864.891626) can0 217#FEFFF8000000C0
(1541517864.891627) can0 186#5D2E2E52E5FFF9
(1541517864.891628) can0 18A#2E500006B600
(1541517864.891629) can0 1F6#1E2081FF80FEFFFE
(1541517864.891631) can0 242#5280FFFFFFFFFD
(1541517864.891633) can0 29C#0000FFFFFFFFFFFF
(1541517864.891634) can0 2C6#FFFFFFFFFFF0
(1541517864.891635) can0 354#0000000000000000
(1541517864.891636) can0 552#2CC4
(1541517864.891637) can0 12E#C780007FE0FFFF00
(1541517864.891638) can0 090#00000000
(1541517864.891638) can0 0C6#7FCB7FE27FFFB81E
(1541517864.891639) can0 29A#00000000000006F9
(1541517864.891640) can0 1F6#1E2081FF80FEFFFE
(1541517864.891640) can0 186#5D522E52E5FFF9
(1541517864.891641) can0 18A#2E500006B600
(1541517864.891642) can0 2B7#00E0FFFE01
(1541517864.891643) can0 5D7#000003252890DC
(1541517864.911390) can0 5DE#0508000000000002
(1541517864.911393) can0 760#05624B2407670000
(1541517864.911394) can0 653#00400800
(1541517864.911395) can0 740#03224B3900000000
(1541517864.911396) can0 12E#C780007FE0FFFF00
(1541517864.911397) can0 090#00000000
(1541517864.911398) can0 0C6#7FCB801E7FFFBADF
(1541517864.911399) can0 217#FEFFF8000000C0
(1541517864.911401) can0 186#5D2E2E52E5FFF9
(1541517864.911402) can0 18A#2E500006B600
(1541517864.911403) can0 1F6#1E2081FF80FEFFFE
(1541517864.911404) can0 242#5280FFFFFFFFFD
(1541517864.911405) can0 29C#0000FFFFFFFFFFFF
(1541517864.911406) can0 2C6#FFFFFFFFFFF0
(1541517864.911406) can0 352#5C000000
(1541517864.911407) can0 673#00184F4F503200
(1541517864.911408) can0 564#EBB0
(1541517864.911408) can0 760#04624B397E000000
(1541517864.911409) can0 12E#C780007FE0FFFF00
(1541517864.911410) can0 090#00000000
(1541517864.911411) can0 0C6#7FCB7FE27FFFBC1A
(1541517864.911412) can0 29A#00000000000007F8
(1541517864.911413) can0 1F6#1E2081FF80FEFFFE
(1541517864.911415) can0 186#5D622E52E5FFF9
(1541517864.911416) can0 18A#2E500006B600
(1541517864.929903) can0 2B7#00E0FFFE01
(1541517864.929906) can0 666#7D000000
(1541517864.929907) can0 66A#2FFF600101C01F00
(1541517864.929909) can0 511#00960A089D6EBC
(1541517864.929910) can0 5DA#FF7100004EFFFF00
(1541517864.929911) can0 648#FFFFF07FFE7FFE00
(1541517864.929912) can0 65C#FEFF
(1541517864.929913) can0 740#03224B3700000000
(1541517864.929914) can0 657#0000
(1541517864.929915) can0 500#02FEEC66CC
(1541517864.929917) can0 12E#C780007FE0FFFF00
(1541517864.929918) can0 090#00000000
(1541517864.929919) can0 0C6#7FCA7FEC7FFFBE0F
(1541517864.929920) can0 217#FEFFF8000000C0
(1541517864.929922) can0 186#5D2E2E52E5FFF9
(1541517864.929923) can0 18A#2E500006B600
(1541517864.929923) can0 1F6#1E2081FF80FEFFFE
(1541517864.929924) can0 242#5280FFFFFFFFFD
(1541517864.929925) can0 29C#0000FFFFFFFFFFFF
(1541517864.929926) can0 2C6#FFFFFFFFFFF0
(1541517864.929927) can0 354#0000000000000000
(1541517864.929928) can0 2BC#94BD9A5D50ADA111
(1541517864.929929) can0 760#04624B377F000000
(1541517864.929930) can0 45C#00000000
(1541517864.929931) can0 4AC#80
(1541517864.929932) can0 5DF#0084
(1541517864.929933) can0 740#03224B0E00000000
(1541517864.950252) can0 12E#C780007FE0FFFF00
(1541517864.950255) can0 090#00000000
(1541517864.950257) can0 0C6#7FCA7FF67FFFA023
(1541517864.950258) can0 29A#00000000000008F7
(1541517864.950259) can0 1F6#1E2081FF80FEFFFE
(1541517864.950260) can0 186#5D522E52E5FFF9
(1541517864.950262) can0 18A#2E500006B600
(1541517864.950263) can0 2B7#00E0FFFE01
(1541517864.950264) can0 4F8#4A1030FFFF03FF00
(1541517864.950265) can0 760#04624B0E00000000
(1541517864.950266) can0 740#03224B0B00000000
(1541517864.950267) can0 12E#C780007FE0FFFF00
(1541517864.950268) can0 090#00000000
(1541517864.950269) can0 0C6#7FCA80007FFFA216
(1541517864.950270) can0 217#FEFFF8000000C0
(1541517864.950271) can0 186#5D302E52E5FFF9
(1541517864.950271) can0 18A#2E500006B600
(1541517864.950272) can0 1F6#1E2081FF80FEFFFE
(1541517864.950273) can0 242#5280FFFFFFFFFD
(1541517864.950274) can0 29C#0000FFFFFFFFFFFF
(1541517864.950274) can0 2C6#FFFFFFFFFFF0
(1541517864.950275) can0 352#5C000000
(1541517864.950277) can0 3B7#FFFAFFCFFE40
(1541517864.950278) can0 760#04624B0B7F000000
(1541517864.950279) can0 12E#C780007FE0FFFF00
(1541517864.950280) can0 090#00000000
(1541517864.970776) can0 0C6#7FCA80007FFFA414
(1541517864.970779) can0 29A#00000000000009F6
(1541517864.970780) can0 1F6#1E2081FF80FEFFFE
(1541517864.970782) can0 186#5D522E52E5FFF9
(1541517864.970783) can0 18A#2E500006B600
(1541517864.970784) can0 2B7#00E0FFFE01
(1541517864.970785) can0 740#03224B0C00000000
(1541517864.970786) can0 12E#C780007FE0FFFF00
(1541517864.970787) can0 090#00000000
(1541517864.970788) can0 0C6#7FCA80007FFFA612
(1541517864.970789) can0 217#FEFFF8000000C0
(1541517864.970791) can0 186#5D2E2E52E5FFF9
(1541517864.970792) can0 18A#2E500006B600
(1541517864.970793) can0 1F6#1E2081FF80FEFFFE
(1541517864.970794) can0 242#5280FFFFFFFFFD
(1541517864.970795) can0 29C#0000FFFFFFFFFFFF
(1541517864.970796) can0 2C6#FFFFFFFFFFF0
(1541517864.970797) can0 354#0000000000000000
(1541517864.970798) can0 760#05624B0C7FFE0000
(1541517864.970798) can0 740#03224B0600000000
(1541517864.970799) can0 12E#C780007FE0FFFF00
(1541517864.970800) can0 090#00000000
(1541517864.970801) can0 0C6#7FCA80007FFFA810
(1541517864.970803) can0 29A#0000000000000AF5
(1541517864.990806) can0 1F6#1E2081FF80FEFFFE
(1541517864.990810) can0 186#5D622E52E5FFF9
(1541517864.990812) can0 18A#2E500006B600
(1541517864.990814) can0 2B7#00E0FFFE01
(1541517864.990815) can0 575#0F14
(1541517864.990817) can0 350#C715FA8614986485
(1541517864.990819) can0 760#07624B0600325289
(1541517864.990821) can0 55D#00D5600091A00000
(1541517864.990822) can0 740#03224B0300000000
(1541517864.990824) can0 12E#C780007FE0FFFF00
(1541517864.990826) can0 090#00000000
(1541517864.990827) can0 0C6#7FCA80007FFFAA0E
(1541517864.990829) can0 217#FEFFF8000000C0
(1541517864.990831) can0 186#5D2E2E52E5FFF9
(1541517864.990833) can0 18A#2E500006B600
(1541517864.990834) can0 1F6#1E2081FF80FEFFFE
(1541517864.990835) can0 242#5280FFFFFFFFFD
(1541517864.990836) can0 29C#0000FFFFFFFFFFFF
(1541517864.990837) can0 2C6#FFFFFFFFFFF0
(1541517864.990839) can0 352#5C000000
(1541517864.990840) can0 552#0F14
(1541517864.990842) can0 760#05624B03FFFF0000
(1541517864.990844) can0 12E#C680007FE0FFFF00
(1541517864.990846) can0 090#00000000
(1541517864.990848) can0 0C6#7FCA80007FFFAC0C
(1541517864.990849) can0 29A#0000000000000BF4
(1541517865.010347) can0 1F6#1E2081FF80FEFFFE
(1541517865.010352) can0 186#5D522E52E5FFF9
(1541517865.010354) can0 18A#2E500006B600
(1541517865.010356) can0 2B7#00E0FFFE01
(1541517865.010358) can0 5D7#000003252890DC
(1541517865.010359) can0 740#03224B0000000000
(1541517865.010361) can0 5DE#0508000000000002
(1541517865.010363) can0 653#00400800
(1541517865.010365) can0 12E#C680007FE0FFFF00
(1541517865.010366) can0 090#00000000
(1541517865.010368) can0 0C6#7FCA80007FFFAE0A
(1541517865.010370) can0 217#FEFFF8000000C0
(1541517865.010371) can0 186#5D302E52E5FFF9
(1541517865.010372) can0 18A#2E500006B600
(1541517865.010374) can0 1F6#1E2081FF80FEFFFE
(1541517865.010375) can0 242#5280FFFFFFFFFD
(1541517865.010376) can0 29C#0000FFFFFFFFFFFF
(1541517865.010377) can0 2C6#FFFFFFFFFFF0
(1541517865.010378) can0 354#0000000000000000
(1541517865.010379) can0 673#00184F4F503200
(1541517865.010380) can0 760#05624B0000000000
(1541517865.010381) can0 564#C370
(1541517865.010382) can0 740#03224BBB00000000
(1541517865.010383) can0 12E#C780007FE0FFFF00
(1541517865.010384) can0 090#00000000
(1541517865.010385) can0 0C6#7FCA80007FFFB008
(1541517865.021858) can0 29A#0000000000000CF3
(1541517865.021862) can0 1F6#1E2081FF80FEFFFE
(1541517865.021864) can0 186#5D4E2E52E5FFF9
(1541517865.021866) can0 18A#2E500006B600
(1541517865.021867) can0 2B7#00E0FFFE01
(1541517865.021869) can0 666#7D000000
(1541517865.021871) can0 66A#2FFF600101C01F00
(1541517865.021873) can0 511#00D5D3C1087B9F
(1541517865.021874) can0 5DA#FF7100004EFFFF00
(1541517865.021876) can0 648#FFFFF07FFE7FFE00
(1541517865.021878) can0 65C#FEFF
(1541517865.021879) can0 760#037F221200000000
(1541517865.021881) can0 657#0000
(1541517865.021882) can0 500#029AA6A8F1
(1541517865.021883) can0 69F#7516451F
(1541517865.021884) can0 740#03224B1000000000
(1541517865.021885) can0 760#037F221200000000
(1541517865.021886) can0 12E#C780007FE0FFFF00
(1541517865.021887) can0 090#00000000
(1541517865.021888) can0 0C6#7FCA80007FFFB206
(1541517865.021889) can0 217#FEFFF8000000C0
(1541517865.021890) can0 186#5D402E52E5FFF9
(1541517865.021892) can0 18A#2E500006B600
(1541517865.021894) can0 1F6#1E2081FF80FEFFFE
(1541517865.021896) can0 242#5280FFFFFFFFFD
(1541517865.021897) can0 29C#0000FFFFFFFFFFFF
(1541517865.041837) can0 2C6#FFFFFFFFFFF0
(1541517865.041841) can0 352#5C000000
(1541517865.041843) can0 740#03224B1100000000
(1541517865.041845) can0 2BC#94D668C6F17CF092
(1541517865.041847) can0 45C#00000000
(1541517865.041848) can0 4AC#80
(1541517865.041850) can0 5DF#0084
(1541517865.041851) can0 760#04624B1100000000
(1541517865.041853) can0 12E#C780007FE0FFFF00
(1541517865.041854) can0 090#00000000
(1541517865.041856) can0 0C6#7FCA80007FFFB404
(1541517865.041858) can0 29A#0000000000000DF2
(1541517865.041860) can0 1F6#1E2081FF80FEFFFE
(1541517865.041862) can0 186#5D522E52E5FFF9
(1541517865.041863) can0 18A#2E500006B600
(1541517865.041865) can0 2B7#00E0FFFE01
(1541517865.041866) can0 4F8#4A1030FFFF03FF00
(1541517865.041868) can0 12E#C780007FE0FFFF00
(1541517865.041869) can0 090#00000000
(1541517865.041871) can0 0C6#7FCA800A7FFFB6F8
(1541517865.041872) can0 217#FEFFF8000000C0
(1541517865.041873) can0 186#5D2E2E52E5FFF9
(1541517865.041875) can0 18A#2E500006B600
(1541517865.041876) can0 1F6#1E2081FF80FEFFFE
(1541517865.041877) can0 242#5280FFFFFFFFFD
(1541517865.041879) can0 29C#0000FFFFFFFFFFFF
(1541517865.069885) can0 2C6#FFFFFFFFFFF0
(1541517865.069889) can0 354#0000000000000000
(1541517865.069890) can0 3B7#FFFAFFCFFE40
(1541517865.069891) can0 12E#C680007FE0FFFF00
(1541517865.069892) can0 090#00000000
(1541517865.069894) can0 0C6#7FCA7FF67FFFB80B
(1541517865.069895) can0 29A#0000000000000EF1
(1541517865.069896) can0 1F6#1E2081FF80FEFFFE
(1541517865.069897) can0 186#5D522E52E5FFF9
(1541517865.069898) can0 18A#2E500006B600
(1541517865.069899) can0 2B7#00E0FFFE01
(1541517865.069901) can0 740#03224B3600000000
(1541517865.069902) can0 12E#C680007FE0FFFF00
(1541517865.069903) can0 090#00000000
(1541517865.069904) can0 0C6#7FCA80007FFFBAFE
(1541517865.069905) can0 217#FEFFF8000000C0
(1541517865.069906) can0 186#5D2E2E52E5FFF9
(1541517865.069906) can0 18A#2E500006B600
(1541517865.069907) can0 1F6#1E2081FF80FEFFFE
(1541517865.069908) can0 242#5280FFFFFFFFFD
(1541517865.069909) can0 29C#0000FFFFFFFFFFFF
(1541517865.069910) can0 2C6#FFFFFFFFFFF0
(1541517865.069911) can0 352#5C000000
(1541517865.069911) can0 760#04624B367F000000
(1541517865.069912) can0 740#03224B0200000000
(1541517865.089990) can0 12E#C680007FE0FFFF00
(1541517865.089993) can0 090#00000000
(1541517865.089994) can0 0C6#7FCA80007FFFBCFC
(1541517865.089995) can0 29A#0000000000000FF0
(1541517865.089997) can0 1F6#1E2081FF80FEFFFE
(1541517865.089998) can0 186#5D542E52E5FFF9
(1541517865.089999) can0 18A#2E500006B600
(1541517865.090000) can0 2B7#00E0FFFE01
(1541517865.090001) can0 575#3F74
(1541517865.090002) can0 350#C715FA8614986485
(1541517865.090003) can0 55D#00D5600091A00000
(1541517865.090005) can0 760#05624B0200000000
(1541517865.090006) can0 217#FEFFF8000000C0
(1541517865.090007) can0 090#00000000
(1541517865.090008) can0 0C6#7FCA800A7FFFBEF0
(1541517865.090009) can0 12E#C680007FE0FFFF00
(1541517865.090010) can0 1F6#1E2081FF80FEFFFE
(1541517865.090010) can0 186#5D3C2E52E5FFF9
(1541517865.090011) can0 18A#2E500006B600
(1541517865.090012) can0 242#5280FFFFFFFFFD
(1541517865.090013) can0 29C#0000FFFFFFFFFFFF
(1541517865.090013) can0 2C6#FFFFFFFFFFF0
(1541517865.090014) can0 354#0000000000000000
(1541517865.090015) can0 740#0322012F00000000
(1541517865.090015) can0 552#3F74
(1541517865.090016) can0 12E#C680007FE0FFFF00
(1541517865.107742) can0 090#00000000
(1541517865.107745) can0 0C6#7FCA7FF67FFFA023
(1541517865.107746) can0 29A#00000000000000FF
(1541517865.107748) can0 1F6#1E2081FF80FEFFFE
(1541517865.107749) can0 186#5D542E52E5FFF9
(1541517865.107750) can0 18A#2E500006B600
(1541517865.107751) can0 2B7#00E0FFFE01
(1541517865.107752) can0 5D7#000003252890DC
(1541517865.107753) can0 5DE#0508000000000002
(1541517865.107754) can0 760#0462012F84000000
(1541517865.107755) can0 653#00400800
(1541517865.107757) can0 740#03224B0100000000
(1541517865.107758) can0 12E#C680007FE0FFFF00
(1541517865.107759) can0 090#00000000
(1541517865.107759) can0 0C6#7FCA80007FFFA216
(1541517865.107760) can0 217#FEFFF8000000C0
(1541517865.107761) can0 186#5D2C2E52E5FFF9
(1541517865.107761) can0 18A#2E500006B600
(1541517865.107763) can0 1F6#1E2081FF80FEFFFE
(1541517865.107764) can0 242#5280FFFFFFFFFD
(1541517865.107764) can0 29C#0000FFFFFFFFFFFF
(1541517865.107765) can0 2C6#FFFFFFFFFFF0
(1541517865.107766) can0 352#5C000000
(1541517865.107767) can0 673#00184F4F503200
(1541517865.107768) can0 760#05624B0100000000
(1541517865.107768) can0 564#F7C0
(1541517865.121124) can0 740#03224B3500000000
(1541517865.121127) can0 12E#C680007FE0FFFF00
(1541517865.121128) can0 090#00000000
(1541517865.121130) can0 0C6#7FCA80007FFFA414
(1541517865.121131) can0 29A#00000000000001FE
(1541517865.121132) can0 1F6#1E2081FF80FEFFFE
(1541517865.121133) can0 186#5D542E52E5FFF9
(1541517865.121134) can0 18A#2E500006B600
(1541517865.121135) can0 2B7#00E0FFFE01
(1541517865.121136) can0 666#7D000000
(1541517865.121137) can0 66A#2FFF600101C01F00
(1541517865.121139) can0 511#00149C7A738882
(1541517865.121140) can0 5DA#FF7100004EFFFF00
(1541517865.121141) can0 648#FFFFF07FFE7FFE00
(1541517865.121141) can0 65C#FEFF
(1541517865.121142) can0 657#0000
(1541517865.121143) can0 500#02FAA933F7
(1541517865.121143) can0 760#1008624B358CC020
(1541517865.121144) can0 740#3000000000000000
(1541517865.121145) can0 760#2100000000000000
(1541517865.121145) can0 12E#C680007FE0FFFF00
(1541517865.121146) can0 090#00000000
(1541517865.121147) can0 0C6#7FCA80007FFFA612
(1541517865.121148) can0 217#FEFFF8000000C0
(1541517865.121148) can0 186#5D2E2E52E5FFF9
(1541517865.121149) can0 18A#2E500006B600
(1541517865.140785) can0 1F6#1E2081FF80FEFFFE
(1541517865.140789) can0 242#5280FFFFFFFFFD
(1541517865.140790) can0 29C#0000FFFFFFFFFFFF
(1541517865.140791) can0 2C6#FFFFFFFFFFF0
(1541517865.140792) can0 354#0000000000000000
(1541517865.140793) can0 740#0322010000000000
(1541517865.140795) can0 2BC#94A637D0DAB7EBEF
(1541517865.140796) can0 45C#00000000
(1541517865.140797) can0 4AC#80
(1541517865.140798) can0 5DF#0084
(1541517865.140799) can0 760#056201007FCA0000
(1541517865.140800) can0 12E#C680007FE0FFFF00
(1541517865.140801) can0 090#00000000
(1541517865.140802) can0 0C6#7FCA80007FFFA810
(1541517865.140803) can0 29A#00000000000002FD
(1541517865.140805) can0 1F6#1E2081FF80FEFFFE
(1541517865.140806) can0 186#5D622E52E5FFF9
(1541517865.140806) can0 18A#2E500006B600
(1541517865.140807) can0 2B7#00E0FFFE01
(1541517865.140808) can0 740#03224B0700000000
(1541517865.140809) can0 4F8#4A1030FFFF03FF00
(1541517865.140809) can0 12E#C680007FE0FFFF00
(1541517865.140810) can0 090#00000000
(1541517865.140811) can0 0C6#7FCA800A7FFFAA04
(1541517865.140812) can0 217#FEFFF8000000C0
(1541517865.161118) can0 186#5D2E2E52E5FFF9
(1541517865.161121) can0 18A#2E500006B600
(1541517865.161122) can0 1F6#1E2081FF80FEFFFE
(1541517865.161123) can0 242#5280FFFFFFFFFD
(1541517865.161124) can0 29C#0000FFFFFFFFFFFF
(1541517865.161125) can0 2C6#FFFFFFFFFFF0
(1541517865.161126) can0 352#5C000000
(1541517865.161127) can0 3B7#FFFAFFCFFE40
(1541517865.161129) can0 760#04624B077E000000
(1541517865.161130) can0 740#03224B0400000000
(1541517865.161131) can0 12E#C780007FD0FFFF00
(1541517865.161132) can0 090#00000000
(1541517865.161134) can0 0C6#7FCA7FF67FFFAC17
(1541517865.161135) can0 29A#00000000000003FC
(1541517865.161135) can0 1F6#1E2081FF80FEFFFE
(1541517865.161136) can0 186#5D522E52E5FFF9
(1541517865.161137) can0 18A#2E500006B600
(1541517865.161138) can0 2B7#00E0FFFE01
(1541517865.161138) can0 760#05624B0400000000
(1541517865.161139) can0 740#03224B2400000000
(1541517865.161140) can0 12E#C780007FD0FFFF00
(1541517865.161140) can0 090#00000000
(1541517865.161141) can0 0C6#7FCA80007FFFAE0A
(1541517865.161142) can0 217#FEFFF8000000C0
(1541517865.161142) can0 186#5D302E52E5FFF9
(1541517865.161143) can0 18A#2E500006B600
(1541517865.181353) can0 1F6#1E2081FF80FEFFFE
(1541517865.181355) can0 242#5280FFFFFFFFFD
(1541517865.181357) can0 29C#0000FFFFFFFFFFFF
(1541517865.181358) can0 2C6#FFFFFFFFFFF0
(1541517865.181359) can0 354#0000000000000000
(1541517865.181360) can0 760#05624B2407670000
(1541517865.181361) can0 12E#C680007FE0FFFF00
(1541517865.181362) can0 090#00000000
(1541517865.181364) can0 0C6#7FCA80007FFFB008
(1541517865.181365) can0 29A#00000000000004FB
(1541517865.181366) can0 1F6#1E2081FF80FEFFFE
(1541517865.181367) can0 186#5D522E52E5FFF9
(1541517865.181368) can0 18A#2E500006B600
(1541517865.181369) can0 2B7#00E0FFFE01
(1541517865.181370) can0 740#03224B3900000000
(1541517865.181371) can0 575#27D4
(1541517865.181372) can0 350#C715FA8614986485
(1541517865.181372) can0 55D#00D5600091A00000
(1541517865.181373) can0 12E#C680007FE0FFFF00
(1541517865.181374) can0 090#00000000
(1541517865.181374) can0 0C6#7FCA80007FFFB206
(1541517865.181375) can0 217#FEFFF8000000C0
(1541517865.181376) can0 186#5D2E2E52E5FFF9
(1541517865.181377) can0 18A#2E500006B600
(1541517865.181378) can0 1F6#1E2081FF80FEFFFE
(1541517865.200971) can0 242#5280FFFFFFFFFD
(1541517865.200974) can0 29C#0000FFFFFFFFFFFF
(1541517865.200975) can0 2C6#FFFFFFFFFFF0
(1541517865.200976) can0 352#5C000000
(1541517865.200977) can0 552#27D4
(1541517865.200978) can0 760#04624B397E000000
(1541517865.200979) can0 740#03224B3700000000
(1541517865.200981) can0 12E#C77FFF7FF0FFFF00
(1541517865.200982) can0 090#00000000
(1541517865.200983) can0 0C6#7FCA80007FFFB404
(1541517865.200984) can0 29A#00000000000005FA
(1541517865.200986) can0 1F6#1E2081FF80FEFFFE
(1541517865.200987) can0 186#5D602E52E5FFF9
(1541517865.200988) can0 18A#2E500006B600
(1541517865.200989) can0 2B7#00E0FFFE01
(1541517865.200990) can0 5D7#000003252890DC
(1541517865.200991) can0 5DE#0508000000000002
(1541517865.200991) can0 760#04624B377F000000
(1541517865.200992) can0 653#00400800
(1541517865.200993) can0 740#03224B0E00000000
(1541517865.200994) can0 12E#C77FFF7FF0FFFF00
(1541517865.200994) can0 090#00000000
(1541517865.200995) can0 0C6#7FCA800A7FFFB6F8
(1541517865.200996) can0 217#FEFFF8000000C0
(1541517865.200996) can0 186#5D302E52E5FFF9
(1541517865.217736) can0 18A#2E500006B600
(1541517865.217739) can0 1F6#1E2081FF80FEFFFE
(1541517865.217740) can0 242#5280FFFFFFFFFD
(1541517865.217741) can0 29C#0000FFFFFFFFFFFF
(1541517865.217742) can0 2C6#FFFFFFFFFFF0
(1541517865.217743) can0 354#0000000000000000
(1541517865.217744) can0 673#00184F4F503200
(1541517865.217746) can0 760#04624B0E00000000
(1541517865.217747) can0 564#FFB0
(1541517865.217749) can0 740#03224B0B00000000
(1541517865.217750) can0 12E#C780007FF0FFFF00
(1541517865.217751) can0 090#00000000
(1541517865.217751) can0 0C6#7FCA7FF67FFFB80B
(1541517865.217752) can0 29A#00000000000006F9
(1541517865.217753) can0 1F6#1E2081FF80FEFFFE
(1541517865.217754) can0 186#5D522E52E5FFF9
(1541517865.217754) can0 18A#2E500006B600
(1541517865.217755) can0 2B7#00E0FFFE01
(1541517865.217756) can0 666#7D000000
(1541517865.217756) can0 66A#2FFF600101C01F00
(1541517865.217757) can0 511#00536533DE9565
(1541517865.217758) can0 5DA#FF7100004EFFFF00
(1541517865.217759) can0 648#FFFFF07FFE7FFE00
(1541517865.217761) can0 65C#FEFF
(1541517865.217762) can0 657#0000
(1541517865.217763) can0 500#02A742927D
(1541517865.217764) can0 760#04624B0B7F000000
(1541517865.233371) can0 740#03224B0C00000000
(1541517865.233373) can0 12E#C780007FF0FFFF00
(1541517865.233375) can0 090#00000000
(1541517865.233376) can0 0C6#7FCA80007FFFBAFE
(1541517865.233377) can0 217#FEFFF8000000C0
(1541517865.233378) can0 186#5D302E52E5FFF9
(1541517865.233379) can0 18A#2E500006B600
(1541517865.233380) can0 1F6#1E2081FF80FEFFFE
(1541517865.233381) can0 242#5280FFFFFFFFFD
(1541517865.233383) can0 29C#0000FFFFFFFFFFFF
(1541517865.233384) can0 2C6#FFFFFFFFFFF0
(1541517865.233385) can0 352#5C000000
(1541517865.233386) can0 2BC#9414DDD7B8DC0424
(1541517865.233387) can0 45C#00000000
(1541517865.233387) can0 760#05624B0C7FFE0000
(1541517865.233388) can0 4AC#80
(1541517865.233389) can0 5DF#0084
(1541517865.233389) can0 740#03224B0600000000
(1541517865.233390) can0 12E#C780007FE0FFFF00
(1541517865.233391) can0 090#00000000
(1541517865.233391) can0 0C6#7FCA80007FFFBCFC
(1541517865.233392) can0 29A#00000000000007F8
(1541517865.233393) can0 1F6#1E2081FF80FEFFFE
(1541517865.233394) can0 186#5D4E2E52E5FFF9
(1541517865.233394) can0 18A#2E500006B600
(1541517865.233395) can0 2B7#00E0FFFE01
(1541517865.257761) can0 4F8#4A1030FFFF03FF00
(1541517865.257768) can0 760#07624B0600325289
(1541517865.257769) can0 12E#C780007FE0FFFF00
(1541517865.257771) can0 090#00000000
(1541517865.257772) can0 0C6#7FCA800A7FFFBEF0
(1541517865.257773) can0 217#FEFFF8000000C0
(1541517865.257775) can0 186#5D3E2E52E5FFF9
(1541517865.257776) can0 18A#2E500006B600
(1541517865.257777) can0 1F6#1E2081FF80FEFFFE
(1541517865.257778) can0 242#5280FFFFFFFFFD
(1541517865.257779) can0 29C#0000FFFFFFFFFFFF
(1541517865.257780) can0 2C6#FFFFFFFFFFF0
(1541517865.257782) can0 354#0000000000000000
(1541517865.257783) can0 740#03224B0300000000
(1541517865.257784) can0 3B7#FFFAFFCFFE40
(1541517865.257785) can0 12E#C680007FE0FFFF00
(1541517865.257786) can0 090#00000000
(1541517865.257787) can0 0C6#7FCA7FF67FFFA023
(1541517865.257788) can0 29A#00000000000008F7
(1541517865.257789) can0 1F6#1E2081FF80FEFFFE
(1541517865.257791) can0 186#5D522E52E5FFF9
(1541517865.257792) can0 18A#2E500006B600
(1541517865.257793) can0 2B7#00E0FFFE01
(1541517865.257795) can0 646#03FFFFFFFFFFFFF0
(1541517865.257796) can0 760#05624B03FFFF0000
(1541517865.274533) can0 740#03224B0000000000
(1541517865.274537) can0 12E#C680007FE0FFFF00
(1541517865.274538) can0 090#00000000
(1541517865.274540) can0 0C6#7FCA80007FFFA216
(1541517865.274541) can0 217#FEFFF8000000C0
(1541517865.274542) can0 186#5D302E52E5FFF9
(1541517865.274543) can0 18A#2E500006B600
(1541517865.274545) can0 1F6#1E2081FF80FEFFFE
(1541517865.274546) can0 242#5280FFFFFFFFFD
(1541517865.274547) can0 29C#0000FFFFFFFFFFFF
(1541517865.274548) can0 2C6#FFFFFFFFFFF0
(1541517865.274550) can0 352#5C000000
(1541517865.274551) can0 760#05624B0000000000
(1541517865.274551) can0 740#03224BBB00000000
(1541517865.274552) can0 12E#C680007FE0FFFF00
(1541517865.274553) can0 090#00000000
(1541517865.274554) can0 0C6#7FCA80007FFFA414
(1541517865.274554) can0 29A#00000000000009F6
(1541517865.274555) can0 1F6#1E2081FF80FEFFFE
(1541517865.274556) can0 186#5D522E52E5FFF9
(1541517865.274557) can0 18A#2E500006B600
(1541517865.274558) can0 2B7#00E0FFFE01
(1541517865.274559) can0 760#037F221200000000
(1541517865.274560) can0 575#36D4
(1541517865.274561) can0 350#C715FA8614986485
(1541517865.291703) can0 55D#00D5600091A00000
(1541517865.291712) can0 740#03224B1000000000
(1541517865.291714) can0 760#037F221200000000
(1541517865.291715) can0 12E#C680007FE0FFFF00
(1541517865.291717) can0 090#00000000
(1541517865.291718) can0 0C6#7FCA80007FFFA612
(1541517865.291719) can0 217#FEFFF8000000C0
(1541517865.291721) can0 186#5D2E2E52E5FFF9
(1541517865.291722) can0 18A#2E500006B600
(1541517865.291723) can0 1F6#1E2081FF80FEFFFE
(1541517865.291724) can0 242#5280FFFFFFFFFD
(1541517865.291725) can0 29C#0000FFFFFFFFFFFF
(1541517865.291726) can0 2C6#FFFFFFFFFFF0
(1541517865.291727) can0 354#0000000000000000
(1541517865.291729) can0 740#03224B1100000000
(1541517865.291730) can0 552#36D4
(1541517865.291731) can0 760#04624B1100000000
(1541517865.291732) can0 12E#C680007FE0FFFF00
(1541517865.291733) can0 090#00000000
(1541517865.291734) can0 0C6#7FCA80007FFFA810
(1541517865.291736) can0 29A#0000000000000AF5
(1541517865.291737) can0 1F6#1E2081FF80FEFFFE
(1541517865.291738) can0 186#5D522E52E5FFF9
(1541517865.291739) can0 18A#2E500006B600
(1541517865.291740) can0 2B7#00E0FFFE01
(1541517865.312589) can0 5D7#000003252890DC
(1541517865.312593) can0 5DE#0508000000000002
(1541517865.312594) can0 653#00400800
(1541517865.312596) can0 12E#C680007FE0FFFF00
(1541517865.312597) can0 090#00000000
(1541517865.312598) can0 0C6#7FCA80007FFFAA0E
(1541517865.312599) can0 217#FEFFF8000000C0
(1541517865.312600) can0 186#5D3E2E52E5FFF9
(1541517865.312601) can0 18A#2E500006B600
(1541517865.312603) can0 1F6#1E2081FF80FEFFFE
(1541517865.312604) can0 242#5280FFFFFFFFFD
(1541517865.312605) can0 29C#0000FFFFFFFFFFFF
(1541517865.312607) can0 2C6#FFFFFFFFFFF0
(1541517865.312608) can0 352#5C000000
(1541517865.312609) can0 673#00184F4F503200
(1541517865.312610) can0 564#F6D0
(1541517865.312611) can0 12E#C780007FE0FFFF00
(1541517865.312612) can0 090#00000000
(1541517865.312612) can0 0C6#7FCA80007FFFAC0C
(1541517865.312613) can0 29A#0000000000000BF4
(1541517865.312614) can0 1F6#1E2081FF80FEFFFE
(1541517865.312616) can0 186#5D522E52E5FFF9
(1541517865.312617) can0 18A#2E500006B600
(1541517865.312617) can0 2B7#00E0FFFE01
(1541517865.312618) can0 666#7D000000
(1541517865.312619) can0 66A#2FFF600101C01F00
(1541517865.330495) can0 511#00922EEC49A248
(1541517865.330498) can0 5DA#FF7100004EFFFF00
(1541517865.330499) can0 648#FFFFF07FFE7FFE00
(1541517865.330501) can0 65C#FEFF
(1541517865.330502) can0 657#0000
(1541517865.330503) can0 500#02F2753B6D
(1541517865.330504) can0 740#03224B3600000000
(1541517865.330505) can0 12E#C780007FE0FFFF00
(1541517865.330506) can0 090#00000000
(1541517865.330507) can0 0C6#7FCA80007FFFAE0A
(1541517865.330508) can0 217#FEFFF8000000C0
(1541517865.330510) can0 186#5D2E2E52E5FFF9
(1541517865.330511) can0 18A#2E500006B600
(1541517865.330512) can0 1F6#1E2081FF80FEFFFE
(1541517865.330513) can0 242#5280FFFFFFFFFD
(1541517865.330513) can0 29C#0000FFFFFFFFFFFF
(1541517865.330514) can0 2C6#FFFFFFFFFFF0
(1541517865.330515) can0 354#0000000000000000
(1541517865.330516) can0 2BC#94EF9C37EF781FDE
(1541517865.330517) can0 45C#00000000
(1541517865.330518) can0 760#04624B367F000000
(1541517865.330518) can0 4AC#80
(1541517865.330519) can0 5DF#0084
(1541517865.330520) can0 740#03224B0200000000
(1541517865.330521) can0 12E#C780007FE0FFFF00
(1541517865.330521) can0 090#00000000
(1541517865.330522) can0 0C6#7FCA80007FFFB008
(1541517865.350987) can0 29A#0000000000000CF3
(1541517865.350990) can0 1F6#1E2081FF80FEFFFE
(1541517865.350991) can0 186#5D542E52E5FFF9
(1541517865.350993) can0 18A#2E500006B600
(1541517865.350994) can0 2B7#00E0FFFE01
(1541517865.350995) can0 4F8#4A1030FFFF03FF00
(1541517865.350996) can0 760#05624B0200000000
(1541517865.350997) can0 12E#C780007FE0FFFF00
(1541517865.350998) can0 090#00000000
(1541517865.350999) can0 0C6#7FCA80007FFFB206
(1541517865.351001) can0 217#FEFFF8000000C0
(1541517865.351002) can0 186#5D2E2E52E5FFF9
(1541517865.351003) can0 18A#2E500006B600
(1541517865.351003) can0 1F6#1E2081FF80FEFFFE
(1541517865.351004) can0 242#5280FFFFFFFFFD
(1541517865.351005) can0 29C#0000FFFFFFFFFFFF
(1541517865.351006) can0 2C6#FFFFFFFFFFF0
(1541517865.351006) can0 352#5C000000
(1541517865.351007) can0 740#0322012F00000000
(1541517865.351008) can0 3B7#FFFAFFCFFE40
(1541517865.351009) can0 12E#C67FFF7FF0FFFF00
(1541517865.351009) can0 090#00000000
(1541517865.351010) can0 0C6#7FCA80007FFFB404
(1541517865.351011) can0 29A#0000000000000DF2
(1541517865.351011) can0 1F6#1E2081FF80FEFFFE
(1541517865.371339) can0 186#5D622E52E5FFF9
(1541517865.371342) can0 18A#2E500006B600
(1541517865.371343) can0 2B7#00E0FFFE01
(1541517865.371344) can0 760#0462012F84000000
(1541517865.371346) can0 740#03224B0100000000
(1541517865.371347) can0 12E#C67FFF7FF0FFFF00
(1541517865.371348) can0 090#00000000
(1541517865.371349) can0 0C6#7FCA800A7FFFB6F8
(1541517865.371350) can0 217#FEFFF8000000C0
(1541517865.371351) can0 186#5D2E2E52E5FFF9
(1541517865.371353) can0 18A#2E500006B600
(1541517865.371354) can0 1F6#1E2081FF80FEFFFE
(1541517865.371355) can0 242#5280FFFFFFFFFD
(1541517865.371356) can0 29C#0000FFFFFFFFFFFF
(1541517865.371358) can0 2C6#FFFFFFFFFFF0
(1541517865.371359) can0 354#0000000000000000
(1541517865.371359) can0 760#05624B0100000000
(1541517865.371360) can0 740#03224B3500000000
(1541517865.371361) can0 12E#C67FFF7FF0FFFF00
(1541517865.371362) can0 090#00000000
(1541517865.371362) can0 0C6#7FCA7FF67FFFB80B
(1541517865.371363) can0 29A#0000000000000EF1
(1541517865.371364) can0 1F6#1E2081FF80FEFFFE
(1541517865.371365) can0 186#5D522E52E5FFF9
(1541517865.371366) can0 18A#2E500006B600
(1541517865.390854) can0 2B7#00E0FFFE01
(1541517865.390857) can0 575#3374
(1541517865.390859) can0 350#C715FA8614986485
(1541517865.390861) can0 760#1008624B358CC020
(1541517865.390862) can0 55D#00D5600091A00000
(1541517865.390863) can0 740#3000000000000000
(1541517865.390864) can0 760#2100000000000000
(1541517865.390865) can0 12E#C67FFF7FF0FFFF00
(1541517865.390866) can0 090#00000000
(1541517865.390868) can0 0C6#7FCA80007FFFBAFE
(1541517865.390869) can0 217#FEFFF8000000C0
(1541517865.390870) can0 186#5D2E2E52E5FFF9
(1541517865.390871) can0 18A#2E500006B600
(1541517865.390873) can0 1F6#1E2081FF80FEFFFE
(1541517865.390874) can0 242#5280FFFFFFFFFD
(1541517865.390875) can0 29C#0000FFFFFFFFFFFF
(1541517865.390876) can0 2C6#FFFFFFFFFFF0
(1541517865.390877) can0 352#5C000000
(1541517865.390878) can0 740#0322010000000000
(1541517865.390878) can0 552#3374
(1541517865.390879) can0 760#056201007FCA0000
(1541517865.390880) can0 12E#C67FFF7FE0FFFF00
(1541517865.390881) can0 090#00000000
(1541517865.390881) can0 0C6#7FCA80007FFFBCFC
(1541517865.390882) can0 29A#0000000000000FF0
(1541517865.390883) can0 1F6#1E2081FF80FEFFFE
(1541517865.410552) can0 186#5D522E52E5FFF9
(1541517865.410555) can0 18A#2E500006B600
(1541517865.410557) can0 2B7#00E0FFFE01
(1541517865.410558) can0 5D7#000003252890DC
(1541517865.410559) can0 740#03224B0700000000
(1541517865.410560) can0 5DE#0508000000000002
(1541517865.410561) can0 653#00400800
(1541517865.410562) can0 12E#C67FFF7FE0FFFF00
(1541517865.410564) can0 090#00000000
(1541517865.410565) can0 0C6#7FCA800A7FFFBEF0
(1541517865.410566) can0 217#FEFFF8000000C0
(1541517865.410567) can0 186#5D302E52E5FFF9
(1541517865.410568) can0 18A#2E500006B600
(1541517865.410569) can0 1F6#1E2081FF80FEFFFE
(1541517865.410570) can0 242#5280FFFFFFFFFD
(1541517865.410572) can0 29C#0000FFFFFFFFFFFF
(1541517865.410572) can0 2C6#FFFFFFFFFFF0
(1541517865.410573) can0 354#0000000000000000
(1541517865.410574) can0 673#00184F4F503200
(1541517865.410575) can0 760#04624B077D000000
(1541517865.410575) can0 564#CB30
(1541517865.410576) can0 740#03224B0400000000
(1541517865.410577) can0 12E#C67FFE7FE0FFFF00
(1541517865.410578) can0 090#00000000
(1541517865.410579) can0 0C6#7FCA7FF67FFFA023
(1541517865.424143) can0 29A#00000000000000FF
(1541517865.424145) can0 1F6#1E2081FF80FEFFFE
(1541517865.424147) can0 186#5D602E52E5FFF9
(1541517865.424148) can0 18A#2E500006B600
(1541517865.424149) can0 2B7#00E0FFFE01
(1541517865.424150) can0 666#7D000000
(1541517865.424151) can0 66A#2FFF600101C01F00
(1541517865.424152) can0 511#00D1F7A5B4AF2B
(1541517865.424154) can0 5DA#FF7100004EFFFF00
(1541517865.424156) can0 648#FFFFF07FFE7FFE00
(1541517865.424157) can0 65C#FEFF
(1541517865.424158) can0 657#0000
(1541517865.424159) can0 500#02B0F3FF37
(1541517865.424160) can0 760#05624B0400000000
(1541517865.424160) can0 740#03224B2400000000
(1541517865.424161) can0 12E#C67FFE7FE0FFFF00
(1541517865.424162) can0 090#00000000
(1541517865.424163) can0 0C6#7FCA80007FFFA216
(1541517865.424164) can0 217#FEFFF8000000C0
(1541517865.424165) can0 186#5D302E52E5FFF9
(1541517865.424166) can0 18A#2E500006B600
(1541517865.424168) can0 1F6#1E2081FF80FEFFFE
(1541517865.424169) can0 242#5280FFFFFFFFFD
(1541517865.424169) can0 29C#0000FFFFFFFFFFFF
(1541517865.424170) can0 2C6#FFFFFFFFFFF0
(1541517865.424171) can0 352#5C000000
(1541517865.443252) can0 2BC#94E470D04E3CA00B
(1541517865.443255) can0 45C#00000000
(1541517865.443256) can0 4AC#80
(1541517865.443257) can0 5DF#0084
(1541517865.443259) can0 12E#C67FFE7FE0FFFF00
(1541517865.443260) can0 090#00000000
(1541517865.443261) can0 0C6#7FCA80007FFFA414
(1541517865.443262) can0 29A#00000000000001FE
(1541517865.443263) can0 1F6#1E2081FF80FEFFFE
(1541517865.443264) can0 186#5D4E2E52E5FFF9
(1541517865.443265) can0 18A#2E500006B600
(1541517865.443266) can0 2B7#00E0FFFE01
(1541517865.443267) can0 4F8#4A1030FFFF03FF00
(1541517865.443268) can0 760#05624B2407670000
(1541517865.443269) can0 740#03224B3900000000
(1541517865.443270) can0 12E#C67FFE7FE0FFFF00
(1541517865.443270) can0 090#00000000
(1541517865.443271) can0 0C6#7FCA80007FFFA612
(1541517865.443272) can0 217#FEFFF8000000C0
(1541517865.443273) can0 186#5D322E52E5FFF9
(1541517865.443273) can0 18A#2E500006B600
(1541517865.443274) can0 1F6#1E2081FF80FEFFFE
(1541517865.443275) can0 242#5280FFFFFFFFFD
(1541517865.443276) can0 29C#0000FFFFFFFFFFFF
(1541517865.443278) can0 2C6#FFFFFFFFFFF0
(1541517865.443279) can0 354#0000000000000000
(1541517865.443280) can0 3B7#FFFAFFCFFE40
(1541517865.469910) can0 760#04624B397E000000
(1541517865.469914) can0 12E#C67FFF7FE0FFFF00
(1541517865.469916) can0 090#00000000
(1541517865.469918) can0 0C6#7FCA80007FFFA810
(1541517865.469919) can0 29A#00000000000002FD
(1541517865.469921) can0 1F6#1E2081FF80FEFFFE
(1541517865.469923) can0 186#5D4E2E52E5FFF9
(1541517865.469924) can0 18A#2E500006B600
(1541517865.469926) can0 2B7#00E0FFFE01
(1541517865.469927) can0 740#03224B3700000000
(1541517865.469929) can0 760#04624B377F000000
(1541517865.469931) can0 12E#C67FFF7FE0FFFF00
(1541517865.469933) can0 090#00000000
(1541517865.469934) can0 0C6#7FCA800A7FFFAA04
(1541517865.469935) can0 217#FEFFF8000000C0
(1541517865.469936) can0 186#5D302E52E5FFF9
(1541517865.469937) can0 18A#2E500006B600
(1541517865.469938) can0 1F6#1E2081FF80FEFFFE
(1541517865.469939) can0 242#5280FFFFFFFFFD
(1541517865.469941) can0 29C#0000FFFFFFFFFFFF
(1541517865.469942) can0 2C6#FFFFFFFFFFF0
(1541517865.469944) can0 352#5C000000
(1541517865.469945) can0 740#03224B0E00000000
(1541517865.469947) can0 760#04624B0E00000000
(1541517865.489870) can0 12E#C77FFF7FE0FFFF00
(1541517865.489874) can0 090#00000000
(1541517865.489876) can0 0C6#7FCA7FF67FFFAC17
(1541517865.489877) can0 29A#00000000000003FC
(1541517865.489879) can0 1F6#1E2081FF80FEFFFE
(1541517865.489881) can0 186#5D602E52E5FFF9
(1541517865.489883) can0 18A#2E500006B600
(1541517865.489884) can0 2B7#00E0FFFE01
(1541517865.489886) can0 740#03224B0B00000000
(1541517865.489888) can0 575#2FE4
(1541517865.489889) can0 350#C715FA8614986485
(1541517865.489891) can0 55D#00D5600091A00000
(1541517865.489893) can0 12E#C77FFF7FE0FFFF00
(1541517865.489894) can0 090#00000000
(1541517865.489895) can0 0C6#7FCA80007FFFAE0A
(1541517865.489896) can0 217#FEFFF8000000C0
(1541517865.489897) can0 186#5D302E52E5FFF9
(1541517865.489898) can0 18A#2E500006B600
(1541517865.489899) can0 1F6#1E2081FF80FEFFFE
(1541517865.489901) can0 242#5280FFFFFFFFFD
(1541517865.489902) can0 29C#0000FFFFFFFFFFFF
(1541517865.489903) can0 2C6#FFFFFFFFFFF0
(1541517865.489904) can0 354#0000000000000000
(1541517865.489905) can0 552#2FE4
(1541517865.489906) can0 760#04624B0B7F000000
(1541517865.489907) can0 740#03224B0C00000000
(1541517865.509415) can0 12E#C780007FE0FFFF00
(1541517865.509419) can0 090#00000000
(1541517865.509420) can0 0C6#7FCA80007FFFB008
(1541517865.509422) can0 29A#00000000000004FB
(1541517865.509424) can0 1F6#1E2081FF80FEFFFE
(1541517865.509425) can0 186#5D4E2E52E5FFF9
(1541517865.509427) can0 18A#2E500006B600
(1541517865.509429) can0 2B7#00E0FFFE01
(1541517865.509430) can0 5D7#000003252890DC
(1541517865.509432) can0 5DE#0508000000000002
(1541517865.509433) can0 653#00400800
(1541517865.509435) can0 760#05624B0C7FFE0000
(1541517865.509436) can0 12E#C780007FE0FFFF00
(1541517865.509437) can0 090#00000000
(1541517865.509438) can0 0C6#7FCA80007FFFB206
(1541517865.509439) can0 217#FEFFF8000000C0
(1541517865.509440) can0 186#5D302E52E5FFF9
(1541517865.509441) can0 18A#2E500006B600
(1541517865.509443) can0 1F6#1E2081FF80FEFFFE
(1541517865.509444) can0 242#5280FFFFFFFFFD
(1541517865.509446) can0 29C#0000FFFFFFFFFFFF
(1541517865.509447) can0 2C6#FFFFFFFFFFF0
(1541517865.509449) can0 352#5C000000
(1541517865.509450) can0 740#03224B0600000000
(1541517865.509452) can0 673#00184F4F503200
(1541517865.509453) can0 564#D7F0
(1541517865.521627) can0 760#07624B0600325289
(1541517865.521630) can0 12E#C780007FE0FFFF00
(1541517865.521632) can0 090#00000000
(1541517865.521634) can0 0C6#7FCA80007FFFB404
(1541517865.521635) can0 29A#00000000000005FA
(1541517865.521637) can0 1F6#1E2081FF80FEFFFE
(1541517865.521639) can0 186#5D522E52E5FFF9
(1541517865.521640) can0 18A#2E500006B600
(1541517865.521642) can0 2B7#00E0FFFE01
(1541517865.521643) can0 666#7D000000
(1541517865.521645) can0 66A#2FFF600101C01F00
(1541517865.521647) can0 511#0010C05E1FBC0E
(1541517865.521648) can0 5DA#FF7100004EFFFF00
(1541517865.521649) can0 648#FFFFF07FFE7FFE00
(1541517865.521650) can0 65C#FEFF
(1541517865.521651) can0 740#03224B0300000000
(1541517865.521652) can0 657#0000
(1541517865.521654) can0 500#0259633EFE
(1541517865.521655) can0 12E#C780007FE0FFFF00
(1541517865.521657) can0 090#00000000
(1541517865.521658) can0 0C6#7FCA800A7FFFB6F8
(1541517865.521660) can0 217#FEFFF8000000C0
(1541517865.521661) can0 186#5D3E2E52E5FFF9
(1541517865.521664) can0 18A#2E500006B600
(1541517865.521665) can0 1F6#1E2081FF80FEFFFE
(1541517865.521666) can0 242#5280FFFFFFFFFD
(1541517865.541186) can0 29C#0000FFFFFFFFFFFF
(1541517865.541190) can0 2C6#FFFFFFFFFFF0
(1541517865.541191) can0 354#0000000000000000
(1541517865.541193) can0 2BC#94C09273744FC4BC
(1541517865.541195) can0 45C#00000000
(1541517865.541196) can0 760#05624B03FFFF0000
(1541517865.541198) can0 4AC#80
(1541517865.541199) can0 5DF#0084
(1541517865.541201) can0 740#03224B0000000000
(1541517865.541202) can0 12E#C780027FE0FFFF00
(1541517865.541204) can0 090#00000000
(1541517865.541206) can0 0C6#7FCA7FF67FFFB80B
(1541517865.541208) can0 29A#00000000000006F9
(1541517865.541209) can0 1F6#1E2081FF80FEFFFE
(1541517865.541210) can0 186#5D522E52E5FFF9
(1541517865.541211) can0 18A#2E500006B600
(1541517865.541212) can0 2B7#00E0FFFE01
(1541517865.541213) can0 4F8#4A1030FFFF03FF00
(1541517865.541214) can0 760#05624B0000000000
(1541517865.541215) can0 740#03224BBB00000000
(1541517865.541216) can0 12E#C780027FE0FFFF00
(1541517865.541217) can0 090#00000000
(1541517865.541219) can0 0C6#7FCA80007FFFBAFE
(1541517865.541220) can0 217#FEFFF8000000C0
(1541517865.541222) can0 186#5D2E2E52E5FFF9
(1541517865.541223) can0 18A#2E500006B600
(1541517865.560942) can0 1F6#1E2081FF80FEFFFE
(1541517865.560946) can0 242#5280FFFFFFFFFD
(1541517865.560948) can0 29C#0000FFFFFFFFFFFF
(1541517865.560950) can0 2C6#FFFFFFFFFFF0
(1541517865.560951) can0 352#5C000000
(1541517865.560953) can0 3B7#FFFAFFCFFE40
(1541517865.560954) can0 760#037F221200000000
(1541517865.560956) can0 6FB#5FC3FFFE00FF00FF
(1541517865.560958) can0 740#03224B1000000000
(1541517865.560959) can0 760#037F221200000000
(1541517865.560961) can0 12E#C780027FE0FFFF00
(1541517865.560962) can0 090#00000000
(1541517865.560964) can0 0C6#7FCA80007FFFBCFC
(1541517865.560965) can0 29A#00000000000007F8
(1541517865.560967) can0 1F6#1E2081FF80FEFFFE
(1541517865.560968) can0 186#5D542E52E5FFF9
(1541517865.560969) can0 18A#2E500006B600
(1541517865.560970) can0 2B7#00E0FFFE01
(1541517865.560971) can0 740#03224B1100000000
(1541517865.560972) can0 760#04624B1100000000
(1541517865.560973) can0 12E#C780027FE0FFFF00
(1541517865.560974) can0 090#00000000
(1541517865.560975) can0 0C6#7FCA80007FFFBEFA
(1541517865.560977) can0 217#FEFFF8000000C0
(1541517865.560978) can0 186#5D2E2E52E5FFF9
(1541517865.581656) can0 18A#2E500006B600
(1541517865.581659) can0 1F6#1E2081FF80FEFFFE
(1541517865.581660) can0 242#5280FFFFFFFFFD
(1541517865.581662) can0 29C#0000FFFFFFFFFFFF
(1541517865.581663) can0 2C6#FFFFFFFFFFF0
(1541517865.581664) can0 354#0000000000000000
(1541517865.581665) can0 12E#C780027FE0FFFF00
(1541517865.581666) can0 090#00000000
(1541517865.581667) can0 0C6#7FCA80007FFFA018
(1541517865.581668) can0 29A#00000000000008F7
(1541517865.581670) can0 1F6#1E2081FF80FEFFFE
(1541517865.581671) can0 186#5D522E52E5FFF9
(1541517865.581672) can0 18A#2E500006B600
(1541517865.581673) can0 2B7#00E0FFFE01
(1541517865.581675) can0 575#3F14
(1541517865.581676) can0 350#C715FA8614986485
(1541517865.581678) can0 55D#00D5600091A00000
(1541517865.581678) can0 12E#C780027FE0FFFF00
(1541517865.581679) can0 090#00000000
(1541517865.581680) can0 0C6#7FCA80007FFFA216
(1541517865.581681) can0 217#FEFFF8000000C0
(1541517865.581681) can0 186#5D3C2E52E5FFF9
(1541517865.581682) can0 18A#2E500006B600
(1541517865.581683) can0 1F6#1E2081FF80FEFFFE
(1541517865.581683) can0 242#5280FFFFFFFFFD
(1541517865.601641) can0 29C#0000FFFFFFFFFFFF
(1541517865.601648) can0 2C6#FFFFFFFFFFF0
(1541517865.601650) can0 352#5C000000
(1541517865.601651) can0 552#3F14
(1541517865.601653) can0 740#03224B3600000000
(1541517865.601654) can0 12E#C680027FE0FFFF00
(1541517865.601655) can0 090#00000000
(1541517865.601656) can0 0C6#7FCA80007FFFA414
(1541517865.601657) can0 29A#00000000000009F6
(1541517865.601659) can0 1F6#1E2081FF80FEFFFE
(1541517865.601660) can0 186#5D542E52E5FFF9
(1541517865.601661) can0 18A#2E500006B600
(1541517865.601662) can0 2B7#00E0FFFE01
(1541517865.601663) can0 5D7#000003252890DC
(1541517865.601664) can0 5DE#0508000000000002
(1541517865.601666) can0 760#04624B367F000000
(1541517865.601667) can0 653#00400800
(1541517865.601668) can0 740#03224B0200000000
(1541517865.601669) can0 12E#C680027FE0FFFF00
(1541517865.601670) can0 090#00000000
(1541517865.601671) can0 0C6#7FCA80007FFFA612
(1541517865.601673) can0 217#FEFFF8000000C0
(1541517865.601674) can0 186#5D2E2E52E5FFF9
(1541517865.601675) can0 18A#2E500006B600
(1541517865.601676) can0 1F6#1E2081FF80FEFFFE
(1541517865.601677) can0 242#5280FFFFFFFFFD
(1541517865.620554) can0 29C#0000FFFFFFFFFFFF
(1541517865.620558) can0 2C6#FFFFFFFFFFF0
(1541517865.620559) can0 354#0000000000000000
(1541517865.620561) can0 673#00184F4F503200
(1541517865.620562) can0 564#D470
(1541517865.620563) can0 760#05624B0200000000
(1541517865.620564) can0 12E#C680007FF0FFFF00
(1541517865.620565) can0 090#00000000
(1541517865.620567) can0 0C6#7FCA80007FFFA810
(1541517865.620568) can0 29A#0000000000000AF5
(1541517865.620569) can0 1F6#1E2081FF80FEFFFE
(1541517865.620570) can0 186#5D522E52E5FFF9
(1541517865.620571) can0 18A#2E500006B600
(1541517865.620572) can0 2B7#00E0FFFE01
(1541517865.620573) can0 666#7D000000
(1541517865.620576) can0 66A#2FFF600101C01F00
(1541517865.620577) can0 511#004F89178AC9F1
(1541517865.620578) can0 5DA#FF7100004EFFFF00
(1541517865.620579) can0 648#FFFFF07FFE7FFE00
(1541517865.620580) can0 65C#FEFF
(1541517865.620581) can0 740#0322012F00000000
(1541517865.620582) can0 657#0000
(1541517865.620583) can0 500#02451BBFF1
(1541517865.620583) can0 12E#C680007FF0FFFF00
(1541517865.620584) can0 090#00000000
(1541517865.620585) can0 0C6#7FCA800A7FFFAA04
(1541517865.640186) can0 217#FEFFF8000000C0
(1541517865.640190) can0 186#5D2E2E52E5FFF9
(1541517865.640191) can0 18A#2E500006B600
(1541517865.640193) can0 1F6#1E2081FF80FEFFFE
(1541517865.640194) can0 242#5280FFFFFFFFFD
(1541517865.640195) can0 29C#0000FFFFFFFFFFFF
(1541517865.640196) can0 2C6#FFFFFFFFFFF0
(1541517865.640197) can0 352#5C000000
(1541517865.640198) can0 2BC#9430872A3E9DE641
(1541517865.640199) can0 45C#00000000
(1541517865.640200) can0 760#0462012F84000000
(1541517865.640201) can0 4AC#80
(1541517865.640202) can0 5DF#0084
(1541517865.640203) can0 740#03224B0100000000
(1541517865.640205) can0 12E#C680007FF0FFFF00
(1541517865.640206) can0 090#00000000
(1541517865.640207) can0 0C6#7FCA7FF67FFFAC17
(1541517865.640208) can0 29A#0000000000000BF4
(1541517865.640209) can0 1F6#1E2081FF80FEFFFE
(1541517865.640210) can0 186#5D622E52E5FFF9
(1541517865.640211) can0 18A#2E500006B600
(1541517865.640214) can0 2B7#00E0FFFE01
(1541517865.640215) can0 4F8#4A1030FFFF03FF00
(1541517865.640216) can0 760#05624B0100000000
(1541517865.640217) can0 740#03224B3500000000
(1541517865.640218) can0 12E#C680007FF0FFFF00
(1541517865.640219) can0 090#00000000
(1541517865.660350) can0 0C6#7FCA80007FFFAE0A
(1541517865.660354) can0 217#FEFFF8000000C0
(1541517865.660355) can0 186#5D302E52E5FFF9
(1541517865.660357) can0 18A#2E500006B600
(1541517865.660358) can0 1F6#1E2081FF80FEFFFE
(1541517865.660359) can0 242#5280FFFFFFFFFD
(1541517865.660360) can0 29C#0000FFFFFFFFFFFF
(1541517865.660362) can0 2C6#FFFFFFFFFFF0
(1541517865.660363) can0 354#0000000000000000
(1541517865.660364) can0 3B7#FFFAFFCFFE40
(1541517865.660365) can0 760#1008624B358CC020
(1541517865.660367) can0 12E#C67FFF7FF0FFFF00
(1541517865.660368) can0 090#00000000
(1541517865.660369) can0 0C6#7FCA80007FFFB008
(1541517865.660370) can0 29A#0000000000000CF3
(1541517865.660371) can0 1F6#1E2081FF80FEFFFE
(1541517865.660373) can0 186#5D4E2E52E5FFF9
(1541517865.660374) can0 18A#2E500006B600
(1541517865.660375) can0 2B7#00E0FFFE01
(1541517865.660376) can0 740#3000000000000000
(1541517865.660377) can0 760#2100000000000000
(1541517865.660377) can0 740#0322010000000000
(1541517865.660378) can0 12E#C67FFF7FF0FFFF00
(1541517865.660379) can0 090#00000000
(1541517865.680083) can0 0C6#7FCA80007FFFB206
(1541517865.680086) can0 217#FEFFF8000000C0
(1541517865.680088) can0 186#5D302E52E5FFF9
(1541517865.680089) can0 18A#2E500006B600
(1541517865.680090) can0 1F6#1E2081FF80FEFFFE
(1541517865.680091) can0 242#5280FFFFFFFFFD
(1541517865.680093) can0 29C#0000FFFFFFFFFFFF
(1541517865.680094) can0 2C6#FFFFFFFFFFF0
(1541517865.680095) can0 352#5C000000
(1541517865.680096) can0 760#056201007FCA0000
(1541517865.680097) can0 740#03224B0700000000
(1541517865.680099) can0 12E#C67FFE7FF0FFFF00
(1541517865.680101) can0 090#00000000
(1541517865.680102) can0 0C6#7FCA80007FFFB404
(1541517865.680103) can0 29A#0000000000000DF2
(1541517865.680104) can0 1F6#1E2081FF80FEFFFE
(1541517865.680105) can0 186#5D522E52E5FFF9
(1541517865.680106) can0 18A#2E500006B600
(1541517865.680107) can0 2B7#00E0FFFE01
(1541517865.680108) can0 575#2384
(1541517865.680109) can0 350#C715FA8614986485
(1541517865.680110) can0 760#04624B077E000000
(1541517865.680111) can0 55D#00D5600091A00000
(1541517865.680112) can0 740#03224B0400000000
(1541517865.680113) can0 12E#C67FFE7FF0FFFF00
(1541517865.680114) can0 090#00000000
(1541517865.700325) can0 0C6#7FCA800A7FFFB6F8
(1541517865.700329) can0 217#FEFFF8000000C0
(1541517865.700330) can0 186#5D522E52E5FFF9
(1541517865.700331) can0 18A#2E500006B600
(1541517865.700333) can0 1F6#1E2081FF80FEFFFE
(1541517865.700334) can0 242#5280FFFFFFFFFD
(1541517865.700335) can0 29C#0000FFFFFFFFFFFF
(1541517865.700336) can0 2C6#FFFFFFFFFFF0
(1541517865.700337) can0 354#0000000000000000
(1541517865.700338) can0 552#2384
(1541517865.700339) can0 760#05624B0400000000
(1541517865.700341) can0 740#03224B2400000000
(1541517865.700342) can0 12E#C77FFE7FF0FFFF00
(1541517865.700343) can0 090#00000000
(1541517865.700344) can0 0C6#7FCA7FF67FFFB80B
(1541517865.700346) can0 29A#0000000000000EF1
(1541517865.700347) can0 1F6#1E2081FF80FEFFFE
(1541517865.700348) can0 186#5D2E2E52E5FFF9
(1541517865.700349) can0 18A#2E500006B600
(1541517865.700350) can0 2B7#00E0FFFE01
(1541517865.700351) can0 5D7#000003252890DC
(1541517865.700352) can0 5DE#0508000000000002
(1541517865.700353) can0 653#00400800
(1541517865.700354) can0 12E#C77FFE7FF0FFFF00
(1541517865.700355) can0 090#00000000
(1541517865.713162) can0 0C6#7FCA80007FFFBAFE
(1541517865.713166) can0 217#FEFFF8000000C0
(1541517865.713167) can0 18A#2E500006B600
(1541517865.713169) can0 186#5D622E52E5FFF9
(1541517865.713170) can0 1F6#1E2081FF80FEFFFE
(1541517865.713171) can0 242#5280FFFFFFFFFD
(1541517865.713172) can0 29C#0000FFFFFFFFFFFF
(1541517865.713173) can0 2C6#FFFFFFFFFFF0
(1541517865.713174) can0 352#5C000000
(1541517865.713175) can0 673#00184F4F503200
(1541517865.713177) can0 760#05624B2407670000
(1541517865.713177) can0 564#D2C0
(1541517865.713179) can0 740#03224B3900000000
(1541517865.713180) can0 12E#C67FFF7FF0FFFF00
(1541517865.713181) can0 090#00000000
(1541517865.713182) can0 0C6#7FCA80007FFFBCFC
(1541517865.713183) can0 29A#0000000000000FF0
(1541517865.713184) can0 1F6#1E2081FF80FEFFFE
(1541517865.713185) can0 186#5D302E52E5FFF9
(1541517865.713187) can0 18A#2E500006B600
(1541517865.713188) can0 2B7#00E0FFFE01
(1541517865.713189) can0 666#7D000000
(1541517865.713190) can0 66A#2FFF600101C01F00
(1541517865.713191) can0 511#008E52D0F5D6D4
(1541517865.713192) can0 5DA#FF7100004EFFFF00
(1541517865.713193) can0 648#FFFFF07FFE7FFE00
(1541517865.730785) can0 65C#FEFF
(1541517865.730791) can0 657#0000
(1541517865.730792) can0 500#02C2399A38
(1541517865.730794) can0 760#04624B397E000000
(1541517865.730795) can0 740#03224B3700000000
(1541517865.730796) can0 12E#C67FFF7FF0FFFF00
(1541517865.730797) can0 090#00000000
(1541517865.730799) can0 0C6#7FCA80007FFFBEFA
(1541517865.730800) can0 217#FEFFF8000000C0
(1541517865.730801) can0 18A#2E500006B600
(1541517865.730802) can0 186#5D4E2E52E5FFF9
(1541517865.730804) can0 1F6#1E2081FF80FEFFFE
(1541517865.730805) can0 242#5280FFFFFFFFFD
(1541517865.730806) can0 29C#0000FFFFFFFFFFFF
(1541517865.730807) can0 2C6#FFFFFFFFFFF0
(1541517865.730809) can0 354#0000000000000000
(1541517865.730810) can0 2BC#94BB54F9C0065D60
(1541517865.730811) can0 45C#00000000
(1541517865.730812) can0 760#04624B377F000000
(1541517865.730813) can0 4AC#80
(1541517865.730814) can0 5DF#0084
(1541517865.730815) can0 740#03224B0E00000000
(1541517865.730816) can0 12E#C77FFF7FF0FFFF00
(1541517865.730817) can0 090#00000000
(1541517865.730817) can0 0C6#7FCA80007FFFA018
(1541517865.730818) can0 29A#00000000000000FF
(1541517865.751330) can0 1F6#1E2081FF80FEFFFE
(1541517865.751334) can0 186#5D302E52E5FFF9
(1541517865.751336) can0 18A#2E500006B600
(1541517865.751337) can0 2B7#00E0FFFE01
(1541517865.751339) can0 4F8#4A1030FFFF03FF00
(1541517865.751340) can0 760#04624B0E00000000
(1541517865.751341) can0 12E#C77FFF7FF0FFFF00
(1541517865.751342) can0 090#00000000
(1541517865.751343) can0 0C6#7FCA80007FFFA216
(1541517865.751344) can0 217#FEFFF8000000C0
(1541517865.751345) can0 186#5D4E2E52E5FFF9
(1541517865.751346) can0 18A#2E500006B600
(1541517865.751347) can0 1F6#1E2081FF80FEFFFE
(1541517865.751348) can0 242#5280FFFFFFFFFD
(1541517865.751350) can0 29C#0000FFFFFFFFFFFF
(1541517865.751351) can0 2C6#FFFFFFFFFFF0
(1541517865.751352) can0 352#5C000000
(1541517865.751353) can0 3B7#FFFAFFCFFE40
(1541517865.751354) can0 740#03224B0B00000000
(1541517865.751355) can0 12E#C77FFE7FF0FFFF00
(1541517865.751356) can0 090#00000000
(1541517865.751358) can0 0C6#7FCA80007FFFA414
(1541517865.751359) can0 29A#00000000000001FE
(1541517865.751360) can0 1F6#1E2081FF80FEFFFE
(1541517865.751361) can0 186#5D402E52E5FFF9
(1541517865.751362) can0 18A#2E500006B600
(1541517865.773253) can0 2B7#00E0FFFE01
(1541517865.773257) can0 646#03FFFFFFFFFFFFF0
(1541517865.773258) can0 760#04624B0B7E000000
(1541517865.773260) can0 740#03224B0C00000000
(1541517865.773261) can0 12E#C77FFE7FF0FFFF00
(1541517865.773262) can0 090#00000000
(1541517865.773263) can0 0C6#7FCA80007FFFA612
(1541517865.773264) can0 217#FEFFF8000000C0
(1541517865.773265) can0 18A#2E500006B600
(1541517865.773267) can0 186#5D522E52E5FFF9
(1541517865.773268) can0 1F6#1E2081FF80FEFFFE
(1541517865.773269) can0 242#5280FFFFFFFFFD
(1541517865.773271) can0 29C#0000FFFFFFFFFFFF
(1541517865.773272) can0 2C6#FFFFFFFFFFF0
(1541517865.773273) can0 354#0000000000000000
(1541517865.773274) can0 760#05624B0C7FFF0000
(1541517865.773275) can0 12E#C67FFE7FF0FFFF00
(1541517865.773276) can0 090#00000000
(1541517865.773277) can0 0C6#7FCA80007FFFA810
(1541517865.773279) can0 29A#00000000000002FD
(1541517865.773280) can0 1F6#1E2081FF80FEFFFE
(1541517865.773280) can0 186#5D2E2E52E5FFF9
(1541517865.773281) can0 18A#2E500006B600
(1541517865.773282) can0 2B7#00E0FFFE01
(1541517865.791613) can0 740#03224B0600000000
(1541517865.791616) can0 575#3064
(1541517865.791617) can0 350#C715FA8614986485
(1541517865.791618) can0 55D#00D5600091A00000
(1541517865.791620) can0 12E#C67FFE7FF0FFFF00
(1541517865.791621) can0 090#00000000
(1541517865.791622) can0 0C6#7FCA800A7FFFAA04
(1541517865.791623) can0 217#FEFFF8000000C0
(1541517865.791624) can0 186#5D522E52E5FFF9
(1541517865.791624) can0 18A#2E500006B600
(1541517865.791625) can0 1F6#1E2081FF80FEFFFE
(1541517865.791626) can0 242#5280FFFFFFFFFD
(1541517865.791626) can0 29C#0000FFFFFFFFFFFF
(1541517865.791627) can0 2C6#FFFFFFFFFFF0
(1541517865.791628) can0 352#5C000000
(1541517865.791629) can0 552#3064
(1541517865.791629) can0 760#07624B0600325289
(1541517865.791630) can0 740#03224B0300000000
(1541517865.791631) can0 12E#C77FFF7FF0FFFF00
(1541517865.791631) can0 090#00000000
(1541517865.791632) can0 0C6#7FCA7FF67FFFAC17
(1541517865.791633) can0 29A#00000000000003FC
(1541517865.791634) can0 1F6#1E2081FF80FEFFFE
(1541517865.791635) can0 186#5D2E2E52E5FFF9
(1541517865.791636) can0 18A#2E500006B600
(1541517865.791636) can0 2B7#00E0FFFE01
(1541517865.811538) can0 5D7#000003252890DC
(1541517865.811542) can0 5DE#0508000000000002
(1541517865.811543) can0 653#00400800
(1541517865.811544) can0 760#05624B03FFFF0000
(1541517865.811545) can0 12E#C77FFF7FF0FFFF00
(1541517865.811546) can0 090#00000000
(1541517865.811547) can0 0C6#7FCA80007FFFAE0A
(1541517865.811548) can0 217#FEFFF8000000C0
(1541517865.811549) can0 186#5D522E52E5FFF9
(1541517865.811550) can0 18A#2E500006B600
(1541517865.811551) can0 1F6#1E2081FF80FEFFFE
(1541517865.811552) can0 242#5280FFFFFFFFFD
(1541517865.811553) can0 29C#0000FFFFFFFFFFFF
(1541517865.811553) can0 2C6#FFFFFFFFFFF0
(1541517865.811554) can0 354#0000000000000000
(1541517865.811555) can0 740#03224B0000000000
(1541517865.811556) can0 673#00184F4F503200
(1541517865.811556) can0 564#D940
(1541517865.811557) can0 12E#C77FFF7FF0FFFF00
(1541517865.811558) can0 090#00000000
(1541517865.811559) can0 0C6#7FCA80007FFFB008
(1541517865.811560) can0 29A#00000000000004FB
(1541517865.811560) can0 1F6#1E2081FF80FEFFFE
(1541517865.811561) can0 186#5D3E2E52E5FFF9
(1541517865.811562) can0 18A#2E500006B600
(1541517865.811563) can0 2B7#00E0FFFE01
(1541517865.828456) can0 666#7D000000
(1541517865.828460) can0 66A#2FFF600101C01F00
(1541517865.828462) can0 511#00CD1B8960E3B7
(1541517865.828463) can0 5DA#FF7100004EFFFF00
(1541517865.828464) can0 648#FFFFF07FFE7FFE00
(1541517865.828465) can0 65C#FEFF
(1541517865.828465) can0 657#0000
(1541517865.828466) can0 500#02C8B4F706
(1541517865.828467) can0 760#05624B0000000000
(1541517865.828468) can0 740#03224BBB00000000
(1541517865.828469) can0 12E#C77FFF7FF0FFFF00
(1541517865.828470) can0 090#00000000
(1541517865.828470) can0 0C6#7FCA80007FFFB206
(1541517865.828471) can0 217#FEFFF8000000C0
(1541517865.828472) can0 186#5D542E52E5FFF9
(1541517865.828474) can0 18A#2E500006B600
(1541517865.828475) can0 1F6#1E2081FF80FEFFFE
(1541517865.828476) can0 242#5280FFFFFFFFFD
(1541517865.828477) can0 29C#0000FFFFFFFFFFFF
(1541517865.828478) can0 2C6#FFFFFFFFFFF0
(1541517865.828478) can0 352#5C000000
(1541517865.828479) can0 760#037F221200000000
(1541517865.828480) can0 2BC#94354946360FFCAF
(1541517865.828481) can0 45C#00000000
(1541517865.828482) can0 4AC#80
(1541517865.828482) can0 5DF#0084
(1541517865.828483) can0 740#03224B1000000000
(1541517865.850010) can0 760#037F221200000000
(1541517865.850014) can0 12E#C77FFF7FF0FFFF00
(1541517865.850015) can0 090#00000000
(1541517865.850017) can0 0C6#7FCA80007FFFB404
(1541517865.850017) can0 29A#00000000000005FA
(1541517865.850018) can0 1F6#1E2081FF80FEFFFE
(1541517865.850019) can0 186#5D2E2E52E5FFF9
(1541517865.850020) can0 18A#2E500006B600
(1541517865.850021) can0 2B7#00E0FFFE01
(1541517865.850022) can0 740#03224B1100000000
(1541517865.850023) can0 4F8#4A1030FFFF03FF00
(1541517865.850023) can0 760#04624B1100000000
(1541517865.850024) can0 12E#C77FFF7FF0FFFF00
(1541517865.850025) can0 090#00000000
(1541517865.850026) can0 0C6#7FCA800A7FFFB6F8
(1541517865.850026) can0 217#FEFFF8000000C0
(1541517865.850028) can0 186#5D522E52E5FFF9
(1541517865.850029) can0 18A#2E500006B600
(1541517865.850030) can0 1F6#1E2081FF80FEFFFE
(1541517865.850031) can0 242#5280FFFFFFFFFD
(1541517865.850032) can0 29C#0000FFFFFFFFFFFF
(1541517865.850033) can0 2C6#FFFFFFFFFFF0
(1541517865.850033) can0 354#0000000000000000
(1541517865.850034) can0 3B7#FFFAFFCFFE40
(1541517865.850035) can0 12E#C680017FF0FFFF00
(1541517865.871197) can0 090#00000000
(1541517865.871201) can0 0C6#7FCA7FF67FFFB80B
(1541517865.871202) can0 29A#00000000000006F9
(1541517865.871203) can0 1F6#1E2081FF80FEFFFE
(1541517865.871204) can0 186#5D2E2E52E5FFF9
(1541517865.871205) can0 18A#2E500006B600
(1541517865.871206) can0 2B7#00E0FFFE01
(1541517865.871207) can0 12E#C680017FF0FFFF00
(1541517865.871208) can0 090#00000000
(1541517865.871208) can0 0C6#7FCA80007FFFBAFE
(1541517865.871209) can0 217#FEFFF8000000C0
(1541517865.871211) can0 186#5D622E52E5FFF9
(1541517865.871211) can0 18A#2E500006B600
(1541517865.871212) can0 1F6#1E2081FF80FEFFFE
(1541517865.871213) can0 242#5280FFFFFFFFFD
(1541517865.871214) can0 29C#0000FFFFFFFFFFFF
(1541517865.871215) can0 2C6#FFFFFFFFFFF0
(1541517865.871215) can0 352#5C000000
(1541517865.871216) can0 740#03224B3600000000
(1541517865.871217) can0 12E#C680027FF0FFFF00
(1541517865.871218) can0 090#00000000
(1541517865.871218) can0 0C6#7FCA80007FFFBCFC
(1541517865.871219) can0 29A#00000000000007F8
(1541517865.871220) can0 1F6#1E2081FF80FEFFFE
(1541517865.871221) can0 186#5D2E2E52E5FFF9
(1541517865.891361) can0 18A#2E500006B600
(1541517865.891365) can0 2B7#00E0FFFE01
(1541517865.891365) can0 575#3104
(1541517865.891366) can0 350#C715FA8614986485
(1541517865.891368) can0 55D#00D5600091A00000
(1541517865.891369) can0 760#04624B367F000000
(1541517865.891370) can0 12E#C680027FF0FFFF00
(1541517865.891370) can0 090#00000000
(1541517865.891371) can0 0C6#7FCA800A7FFFBEF0
(1541517865.891372) can0 217#FEFFF8000000C0
(1541517865.891373) can0 186#5D522E52E5FFF9
(1541517865.891374) can0 18A#2E500006B600
(1541517865.891375) can0 1F6#1E2081FF80FEFFFE
(1541517865.891375) can0 242#5280FFFFFFFFFD
(1541517865.891376) can0 29C#0000FFFFFFFFFFFF
(1541517865.891377) can0 2C6#FFFFFFFFFFF0
(1541517865.891378) can0 354#0000000000000000
(1541517865.891378) can0 740#03224B0200000000
(1541517865.891379) can0 552#3104
(1541517865.891380) can0 12E#C680027FF0FFFF00
(1541517865.891381) can0 090#00000000
(1541517865.891382) can0 0C6#7FCA7FF67FFFA023
(1541517865.891383) can0 29A#00000000000008F7
(1541517865.891384) can0 1F6#1E2081FF80FEFFFE
