(1541515771.235322) can0 1F6#1E2081FF80FEFFFE
(1541515771.235334) can0 242#5280FFFFFFFFFD
(1541515771.235337) can0 29C#0000FFFFFFFFFFFF
(1541515771.235340) can0 354#0000000000000000
(1541515771.235343) can0 760#0462012F87000000
(1541515771.235345) can0 740#03224B0100000000
(1541515771.235347) can0 12E#C780007FE0FFFF00
(1541515771.235349) can0 090#00000000
(1541515771.235351) can0 0C6#90DB80007FFFA0F6
(1541515771.235354) can0 186#5D522E52E5FFF9
(1541515771.235357) can0 18A#2E500006B600
(1541515771.235359) can0 1F6#1E2081FF80FEFFFE
(1541515771.235361) can0 29A#00000000000008F7
(1541515771.235363) can0 2B7#00E0FFFE01
(1541515771.235365) can0 760#05624B0100000000
(1541515771.235367) can0 740#03224B3500000000
(1541515771.235368) can0 217#FEFFF8000000C0
(1541515771.235370) can0 2C6#FFFFFFFFFFF0
(1541515771.235372) can0 12E#C780007FE0FFFF00
(1541515771.235374) can0 090#00000000
(1541515771.235376) can0 0C6#90DB800A7FFFA2EA
(1541515771.235378) can0 186#5D2E2E52E5FFF9
(1541515771.235380) can0 18A#2E500006B600
(1541515771.235383) can0 1F6#1E2081FF80FEFFFE
(1541515771.254645) can0 242#5280FFFFFFFFFD
(1541515771.254655) can0 29C#0000FFFFFFFFFFFF
(1541515771.254656) can0 352#5C000000
(1541515771.254658) can0 760#1008624B350CC020
(1541515771.254659) can0 740#3000000000000000
(1541515771.254661) can0 760#2100000000000000
(1541515771.254662) can0 12E#C780007FE0FFFF00
(1541515771.254663) can0 090#00000000
(1541515771.254665) can0 0C6#90DB80007FFFA4F2
(1541515771.254666) can0 186#5D602E52E5FFF9
(1541515771.254668) can0 18A#2E500006B600
(1541515771.254669) can0 1F6#1E2081FF80FEFFFE
(1541515771.254671) can0 29A#00000000000009F6
(1541515771.254672) can0 2B7#00E0FFFE01
(1541515771.254673) can0 575#1784
(1541515771.254674) can0 5D7#000003251B50C0
(1541515771.254676) can0 350#C715FA6314986485
(1541515771.254676) can0 740#0322010000000000
(1541515771.254677) can0 55D#00D5600091800000
(1541515771.254678) can0 217#FEFFF8000000C0
(1541515771.254679) can0 2C6#FFFFFFFFFFF0
(1541515771.254680) can0 760#0562010090DB0000
(1541515771.254681) can0 090#00000000
(1541515771.254683) can0 0C6#90DB7FF67FFFA6FB
(1541515771.254685) can0 12E#C780007FE0FFFF00
(1541515771.254687) can0 186#5D322E52E5FFF9
(1541515771.274587) can0 18A#2E500006B600
(1541515771.274592) can0 1F6#1E2081FF80FEFFFE
(1541515771.274593) can0 242#5280FFFFFFFFFD
(1541515771.274594) can0 29C#0000FFFFFFFFFFFF
(1541515771.274596) can0 354#0000000000000000
(1541515771.274597) can0 552#1784
(1541515771.274599) can0 740#03224B0700000000
(1541515771.274600) can0 12E#C780007FD0FFFF00
(1541515771.274601) can0 090#00000000
(1541515771.274602) can0 0C6#90DB80007FFFA8EE
(1541515771.274604) can0 186#5D4E2E52E5FFF9
(1541515771.274605) can0 18A#2E500006B600
(1541515771.274606) can0 1F6#1E2081FF80FEFFFE
(1541515771.274608) can0 29A#0000000000000AF5
(1541515771.274609) can0 2B7#00E0FFFE01
(1541515771.274610) can0 5DE#0008000000000002
(1541515771.274611) can0 666#7D020000
(1541515771.274612) can0 760#04624B077E000000
(1541515771.274613) can0 653#00400800
(1541515771.274614) can0 740#03224B0400000000
(1541515771.274616) can0 217#FEFFF8000000C0
(1541515771.274617) can0 2C6#FFFFFFFFFFF0
(1541515771.274618) can0 12E#C780007FD0FFFF00
(1541515771.274620) can0 090#00000000
(1541515771.274621) can0 0C6#90DB80007FFFAAEC
(1541515771.294626) can0 186#5D302E52E5FFF9
(1541515771.294635) can0 18A#2E500006B600
(1541515771.294636) can0 1F6#1E2081FF80FEFFFE
(1541515771.294638) can0 242#5280FFFFFFFFFD
(1541515771.294639) can0 29C#0000FFFFFFFFFFFF
(1541515771.294641) can0 352#5C000000
(1541515771.294643) can0 673#0018FFFFFFFF00
(1541515771.294644) can0 760#05624B0400000000
(1541515771.294645) can0 564#C390
(1541515771.294646) can0 740#03224B2400000000
(1541515771.294647) can0 12E#C780007FE0FFFF00
(1541515771.294648) can0 090#00000000
(1541515771.294650) can0 0C6#90DB80007FFFACEA
(1541515771.294651) can0 186#5D522E52E5FFF9
(1541515771.294652) can0 18A#2E500006B600
(1541515771.294653) can0 1F6#1E2081FF80FEFFFE
(1541515771.294654) can0 29A#0000000000000BF4
(1541515771.294655) can0 2B7#00E0FFFE01
(1541515771.294656) can0 657#0000
(1541515771.294657) can0 500#02ABB69978
(1541515771.294658) can0 4F8#4A1030FFFF03FF00
(1541515771.294660) can0 217#FEFFF8000000C0
(1541515771.294661) can0 2C6#FFFFFFFFFFF0
(1541515771.294662) can0 12E#C780007FE0FFFF00
(1541515771.294663) can0 090#00000000
(1541515771.294664) can0 0C6#90DB800A7FFFAEDE
(1541515771.294665) can0 186#5D2E2E52E5FFF9
(1541515771.313489) can0 18A#2E500006B600
(1541515771.313493) can0 1F6#1E2081FF80FEFFFE
(1541515771.313494) can0 242#5280FFFFFFFFFD
(1541515771.313495) can0 29C#0000FFFFFFFFFFFF
(1541515771.313497) can0 2BC#944C5668FB5AAD29
(1541515771.313498) can0 354#0000000000000000
(1541515771.313499) can0 45C#00000000
(1541515771.313500) can0 4AC#80
(1541515771.313500) can0 5DF#0084
(1541515771.313501) can0 3B7#FFFF7FCFFE40
(1541515771.313502) can0 760#05624B2407670000
(1541515771.313503) can0 740#03224B3900000000
(1541515771.313504) can0 12E#C780027FF0FFFF00
(1541515771.313505) can0 090#00000000
(1541515771.313506) can0 0C6#90DB7FF67FFFB0F1
(1541515771.313506) can0 186#5D622E52E5FFF9
(1541515771.313507) can0 18A#2E500006B600
(1541515771.313508) can0 1F6#1E2081FF80FEFFFE
(1541515771.313509) can0 29A#0000000000000CF3
(1541515771.313509) can0 2B7#00E0FFFE01
(1541515771.313511) can0 66A#2FFF600101C01F00
(1541515771.313512) can0 511#005E0280054664
(1541515771.313513) can0 5DA#FF7100004EFFFF00
(1541515771.313514) can0 648#FFFFF07FFE7FFE00
(1541515771.313515) can0 65C#FEFF
(1541515771.313515) can0 217#FEFFF8000000C0
(1541515771.334104) can0 2C6#FFFFFFFFFFF0
(1541515771.334110) can0 760#04624B397D000000
(1541515771.334112) can0 090#00000000
(1541515771.334113) can0 0C6#90DB80007FFFB2E4
(1541515771.334115) can0 12E#C780027FF0FFFF00
(1541515771.334117) can0 186#5D302E52E5FFF9
(1541515771.334118) can0 18A#2E500006B600
(1541515771.334120) can0 1F6#1E2081FF80FEFFFE
(1541515771.334121) can0 242#5280FFFFFFFFFD
(1541515771.334122) can0 29C#0000FFFFFFFFFFFF
(1541515771.334123) can0 352#5C000000
(1541515771.334125) can0 740#03224B3700000000
(1541515771.334126) can0 12E#C780027FE0FFFF00
(1541515771.334127) can0 090#00000000
(1541515771.334129) can0 0C6#90DB80007FFFB4E2
(1541515771.334130) can0 186#5D522E52E5FFF9
(1541515771.334131) can0 18A#2E500006B600
(1541515771.334133) can0 1F6#1E2081FF80FEFFFE
(1541515771.334134) can0 29A#0000000000000DF2
(1541515771.334135) can0 2B7#00E0FFFE01
(1541515771.334137) can0 760#04624B377F000000
(1541515771.334138) can0 740#03224B0E00000000
(1541515771.334139) can0 217#FEFFF8000000C0
(1541515771.334140) can0 2C6#FFFFFFFFFFF0
(1541515771.334141) can0 12E#C780027FE0FFFF00
(1541515771.354114) can0 090#00000000
(1541515771.354120) can0 0C6#90DB800A7FFFB6D6
(1541515771.354121) can0 186#5D2E2E52E5FFF9
(1541515771.354123) can0 18A#2E500006B600
(1541515771.354124) can0 1F6#1E2081FF80FEFFFE
(1541515771.354125) can0 242#5280FFFFFFFFFD
(1541515771.354127) can0 29C#0000FFFFFFFFFFFF
(1541515771.354128) can0 354#0000000000000000
(1541515771.354129) can0 760#04624B0E00000000
(1541515771.354131) can0 12E#C780007FD0FFFF00
(1541515771.354132) can0 090#00000000
(1541515771.354133) can0 0C6#90DB7FF67FFFB8E9
(1541515771.354135) can0 186#5D522E52E5FFF9
(1541515771.354136) can0 18A#2E500006B600
(1541515771.354137) can0 1F6#1E2081FF80FEFFFE
(1541515771.354139) can0 29A#0000000000000EF1
(1541515771.354140) can0 2B7#00E0FFFE01
(1541515771.354141) can0 575#1A64
(1541515771.354143) can0 5D7#000003251B50C0
(1541515771.354144) can0 350#C715FA6314986485
(1541515771.354145) can0 55D#00D5600091800000
(1541515771.354147) can0 740#03224B0B00000000
(1541515771.354148) can0 217#FEFFF8000000C0
(1541515771.354150) can0 2C6#FFFFFFFFFFF0
(1541515771.354152) can0 12E#C780007FD0FFFF00
(1541515771.373948) can0 090#00000000
(1541515771.373954) can0 0C6#90DB80007FFFBADC
(1541515771.373955) can0 186#5D3E2E52E5FFF9
(1541515771.373957) can0 18A#2E500006B600
(1541515771.373959) can0 1F6#1E2081FF80FEFFFE
(1541515771.373960) can0 242#5280FFFFFFFFFD
(1541515771.373961) can0 29C#0000FFFFFFFFFFFF
(1541515771.373963) can0 352#5C000000
(1541515771.373964) can0 552#1A64
(1541515771.373965) can0 760#04624B0B7F000000
(1541515771.373966) can0 740#03224B0C00000000
(1541515771.373969) can0 12E#C780017FD0FFFF00
(1541515771.373970) can0 090#00000000
(1541515771.373972) can0 0C6#90DB80007FFFBCDA
(1541515771.373973) can0 186#5D522E52E5FFF9
(1541515771.373974) can0 18A#2E500006B600
(1541515771.373976) can0 1F6#1E2081FF80FEFFFE
(1541515771.373977) can0 29A#0000000000000FF0
(1541515771.373979) can0 2B7#00E0FFFE01
(1541515771.373980) can0 5DE#0008000000000002
(1541515771.373981) can0 666#7D020000
(1541515771.373982) can0 760#05624B0C7FFE0000
(1541515771.373983) can0 653#00400800
(1541515771.373984) can0 740#03224B0600000000
(1541515771.373985) can0 217#FEFFF8000000C0
(1541515771.373987) can0 2C6#FFFFFFFFFFF0
(1541515771.393562) can0 12E#C780017FD0FFFF00
(1541515771.393568) can0 090#00000000
(1541515771.393569) can0 0C6#90DB80007FFFBED8
(1541515771.393571) can0 186#5D302E52E5FFF9
(1541515771.393572) can0 18A#2E500006B600
(1541515771.393574) can0 1F6#1E2081FF80FEFFFE
(1541515771.393575) can0 242#5280FFFFFFFFFD
(1541515771.393577) can0 29C#0000FFFFFFFFFFFF
(1541515771.393578) can0 354#0000000000000000
(1541515771.393579) can0 673#0018FFFFFFFF00
(1541515771.393581) can0 760#07624B06003251B5
(1541515771.393582) can0 564#D270
(1541515771.393583) can0 740#03224B0300000000
(1541515771.393585) can0 12E#C780027FD0FFFF00
(1541515771.393586) can0 090#00000000
(1541515771.393587) can0 0C6#90DB80007FFFA0F6
(1541515771.393589) can0 186#5D522E52E5FFF9
(1541515771.393590) can0 18A#2E500006B600
(1541515771.393592) can0 1F6#1E2081FF80FEFFFE
(1541515771.393593) can0 29A#00000000000000FF
(1541515771.393594) can0 2B7#00E0FFFE01
(1541515771.393595) can0 657#0000
(1541515771.393598) can0 500#02E8D88DA6
(1541515771.393599) can0 69F#7516451F
(1541515771.393600) can0 4F8#4A1030FFFF03FF00
(1541515771.393602) can0 217#FEFFF8000000C0
(1541515771.405981) can0 2C6#FFFFFFFFFFF0
(1541515771.405988) can0 760#05624B03FFFF0000
(1541515771.405989) can0 090#00000000
(1541515771.405991) can0 0C6#90DB800A7FFFA2EA
(1541515771.405993) can0 12E#C780027FD0FFFF00
(1541515771.405995) can0 186#5D2E2E52E5FFF9
(1541515771.405996) can0 18A#2E500006B600
(1541515771.405998) can0 1F6#1E2081FF80FEFFFE
(1541515771.405999) can0 242#5280FFFFFFFFFD
(1541515771.406001) can0 29C#0000FFFFFFFFFFFF
(1541515771.406002) can0 2BC#9471463BE905D17E
(1541515771.406003) can0 352#5C000000
(1541515771.406004) can0 45C#00000000
(1541515771.406005) can0 4AC#80
(1541515771.406006) can0 5DF#0084
(1541515771.406007) can0 740#03224B0000000000
(1541515771.406009) can0 3B7#FFFF7FCFFE40
(1541515771.406010) can0 12E#C780007FE0FFFF00
(1541515771.406011) can0 090#00000000
(1541515771.406013) can0 0C6#90DB80007FFFA4F2
(1541515771.406014) can0 186#5D522E52E5FFF9
(1541515771.406015) can0 18A#2E500006B600
(1541515771.406016) can0 1F6#1E2081FF80FEFFFE
(1541515771.406017) can0 29A#00000000000001FE
(1541515771.406019) can0 2B7#00E0FFFE01
(1541515771.406020) can0 66A#2FFF600101C01F00
(1541515771.406022) can0 511#009DCB39705347
(1541515771.424782) can0 5DA#FF7100004EFFFF00
(1541515771.424786) can0 648#FFFFF07FFE7FFE00
(1541515771.424787) can0 65C#FEFF
(1541515771.424789) can0 760#05624B0000000000
(1541515771.424790) can0 740#03224BBB00000000
(1541515771.424791) can0 760#037F221200000000
(1541515771.424792) can0 217#FEFFF8000000C0
(1541515771.424794) can0 2C6#FFFFFFFFFFF0
(1541515771.424795) can0 12E#C780007FE0FFFF00
(1541515771.424796) can0 090#00000000
(1541515771.424797) can0 0C6#90DB7FF67FFFA6FB
(1541515771.424798) can0 186#5D3E2E52E5FFF9
(1541515771.424799) can0 18A#2E500006B600
(1541515771.424800) can0 1F6#1E2081FF80FEFFFE
(1541515771.424801) can0 242#5280FFFFFFFFFD
(1541515771.424801) can0 29C#0000FFFFFFFFFFFF
(1541515771.424802) can0 354#0000000000000000
(1541515771.424803) can0 740#03224B1000000000
(1541515771.424805) can0 760#037F221200000000
(1541515771.424806) can0 740#03224B1100000000
(1541515771.424807) can0 12E#C780007FE0FFFF00
(1541515771.424808) can0 090#00000000
(1541515771.424809) can0 0C6#90DB80007FFFA8EE
(1541515771.424810) can0 186#5D542E52E5FFF9
(1541515771.445948) can0 18A#2E500006B600
(1541515771.445952) can0 1F6#1E2081FF80FEFFFE
(1541515771.445953) can0 29A#00000000000002FD
(1541515771.445954) can0 2B7#00E0FFFE01
(1541515771.445955) can0 760#04624B1100000000
(1541515771.445956) can0 217#FEFFF8000000C0
(1541515771.445957) can0 2C6#FFFFFFFFFFF0
(1541515771.445959) can0 12E#C780007FE0FFFF00
(1541515771.445960) can0 090#00000000
(1541515771.445961) can0 0C6#90DB800A7FFFAAE2
(1541515771.445962) can0 186#5D2E2E52E5FFF9
(1541515771.445963) can0 18A#2E500006B600
(1541515771.445964) can0 1F6#1E2081FF80FEFFFE
(1541515771.445965) can0 242#5280FFFFFFFFFD
(1541515771.445967) can0 29C#0000FFFFFFFFFFFF
(1541515771.445968) can0 352#5C000000
(1541515771.445969) can0 12E#C780017FE0FFFF00
(1541515771.445970) can0 090#00000000
(1541515771.445971) can0 0C6#90DB80007FFFACEA
(1541515771.445972) can0 186#5D522E52E5FFF9
(1541515771.445973) can0 18A#2E500006B600
(1541515771.445974) can0 1F6#1E2081FF80FEFFFE
(1541515771.445975) can0 29A#00000000000003FC
(1541515771.445976) can0 2B7#00E0FFFE01
(1541515771.445977) can0 575#2964
(1541515771.445978) can0 5D7#000003251B50C0
(1541515771.465875) can0 350#C715FA6314986485
(1541515771.465879) can0 55D#00D5600091800000
(1541515771.465880) can0 740#03224B3600000000
(1541515771.465881) can0 217#FEFFF8000000C0
(1541515771.465882) can0 2C6#FFFFFFFFFFF0
(1541515771.465883) can0 090#00000000
(1541515771.465884) can0 0C6#90DB80007FFFAEE8
(1541515771.465885) can0 12E#C780017FE0FFFF00
(1541515771.465886) can0 186#5D2E2E52E5FFF9
(1541515771.465887) can0 18A#2E500006B600
(1541515771.465888) can0 1F6#1E2081FF80FEFFFE
(1541515771.465889) can0 242#5280FFFFFFFFFD
(1541515771.465889) can0 29C#0000FFFFFFFFFFFF
(1541515771.465890) can0 354#0000000000000000
(1541515771.465891) can0 552#2964
(1541515771.465893) can0 760#04624B367F000000
(1541515771.465894) can0 12E#C680027FE0FFFF00
(1541515771.465895) can0 090#00000000
(1541515771.465896) can0 0C6#90DB7FF67FFFB0F1
(1541515771.465897) can0 186#5D622E52E5FFF9
(1541515771.465898) can0 18A#2E500006B600
(1541515771.465899) can0 1F6#1E2081FF80FEFFFE
(1541515771.465900) can0 29A#00000000000004FB
(1541515771.465901) can0 2B7#00E0FFFE01
(1541515771.465902) can0 5DE#0008000000000002
(1541515771.485749) can0 666#7D020000
(1541515771.485754) can0 740#03224B0200000000
(1541515771.485754) can0 653#00400800
(1541515771.485755) can0 217#FEFFF8000000C0
(1541515771.485756) can0 2C6#FFFFFFFFFFF0
(1541515771.485757) can0 090#00000000
(1541515771.485758) can0 0C6#90DB80007FFFB2E4
(1541515771.485760) can0 12E#C680027FE0FFFF00
(1541515771.485761) can0 186#5D302E52E5FFF9
(1541515771.485762) can0 18A#2E500006B600
(1541515771.485763) can0 1F6#1E2081FF80FEFFFE
(1541515771.485764) can0 242#5280FFFFFFFFFD
(1541515771.485765) can0 29C#0000FFFFFFFFFFFF
(1541515771.485767) can0 352#5C000000
(1541515771.485768) can0 673#0018FFFFFFFF00
(1541515771.485769) can0 760#05624B0200000000
(1541515771.485770) can0 564#C630
(1541515771.485771) can0 740#0322012F00000000
(1541515771.485772) can0 12E#C680027FE0FFFF00
(1541515771.485772) can0 090#00000000
(1541515771.485773) can0 0C6#90DB80007FFFB4E2
(1541515771.485774) can0 186#5D4E2E52E5FFF9
(1541515771.485775) can0 18A#2E500006B600
(1541515771.485775) can0 1F6#1E2081FF80FEFFFE
(1541515771.485776) can0 29A#00000000000005FA
(1541515771.485777) can0 2B7#00E0FFFE01
(1541515771.485778) can0 657#0000
(1541515771.504983) can0 500#029BB8DE96
(1541515771.504987) can0 4F8#4A1030FFFF03FF00
(1541515771.504988) can0 760#0462012F87000000
(1541515771.504989) can0 217#FEFFF8000000C0
(1541515771.504991) can0 2C6#FFFFFFFFFFF0
(1541515771.504991) can0 090#00000000
(1541515771.504992) can0 0C6#90DB800A7FFFB6D6
(1541515771.504993) can0 12E#C680027FE0FFFF00
(1541515771.504994) can0 186#5D302E52E5FFF9
(1541515771.504995) can0 18A#2E500006B600
(1541515771.504996) can0 1F6#1E2081FF80FEFFFE
(1541515771.504997) can0 242#5280FFFFFFFFFD
(1541515771.504997) can0 29C#0000FFFFFFFFFFFF
(1541515771.504998) can0 2BC#94A92629A648CCA2
(1541515771.504999) can0 354#0000000000000000
(1541515771.505000) can0 45C#00000000
(1541515771.505000) can0 4AC#80
(1541515771.505001) can0 5DF#0084
(1541515771.505002) can0 740#03224B0100000000
(1541515771.505003) can0 3B7#FFFF7FCFFE40
(1541515771.505004) can0 760#05624B0100000000
(1541515771.505005) can0 12E#C780027FE0FFFF00
(1541515771.505006) can0 090#00000000
(1541515771.505007) can0 0C6#90DB80007FFFB8DE
(1541515771.505008) can0 186#5D522E52E5FFF9
(1541515771.505009) can0 18A#2E500006B600
(1541515771.524038) can0 1F6#1E2081FF80FEFFFE
(1541515771.524042) can0 29A#00000000000006F9
(1541515771.524043) can0 2B7#00E0FFFE01
(1541515771.524044) can0 66A#2FFF600101C01F00
(1541515771.524045) can0 511#00DC94F2DB602A
(1541515771.524046) can0 5DA#FF7100004EFFFF00
(1541515771.524047) can0 648#FFFFF07FFE7FFE00
(1541515771.524048) can0 65C#FEFF
(1541515771.524048) can0 740#03224B3500000000
(1541515771.524049) can0 760#1008624B350CC020
(1541515771.524050) can0 217#FEFFF8000000C0
(1541515771.524051) can0 12E#C780027FE0FFFF00
(1541515771.524052) can0 090#00000000
(1541515771.524053) can0 0C6#90DB7FF67FFFBAE7
(1541515771.524055) can0 186#5D302E52E5FFF9
(1541515771.524056) can0 18A#2E500006B600
(1541515771.524056) can0 1F6#1E2081FF80FEFFFE
(1541515771.524057) can0 242#5280FFFFFFFFFD
(1541515771.524058) can0 29C#0000FFFFFFFFFFFF
(1541515771.524060) can0 2C6#FFFFFFFFFFF0
(1541515771.524061) can0 352#5C000000
(1541515771.524062) can0 740#3000000000000000
(1541515771.524063) can0 760#2100000000000000
(1541515771.524063) can0 740#0322010000000000
(1541515771.524064) can0 12E#C780027FF0FFFF00
(1541515771.544728) can0 090#00000000
(1541515771.544732) can0 0C6#90DB80007FFFBCDA
(1541515771.544734) can0 186#5D602E52E5FFF9
(1541515771.544735) can0 18A#2E500006B600
(1541515771.544736) can0 1F6#1E2081FF80FEFFFE
(1541515771.544736) can0 29A#00000000000007F8
(1541515771.544737) can0 2B7#00E0FFFE01
(1541515771.544738) can0 760#0562010090DB0000
(1541515771.544740) can0 740#03224B0700000000
(1541515771.544741) can0 217#FEFFF8000000C0
(1541515771.544741) can0 2C6#FFFFFFFFFFF0
(1541515771.544742) can0 090#00000000
(1541515771.544744) can0 0C6#90DB80007FFFBED8
(1541515771.544744) can0 12E#C780027FF0FFFF00
(1541515771.544745) can0 186#5D302E52E5FFF9
(1541515771.544747) can0 18A#2E500006B600
(1541515771.544748) can0 1F6#1E2081FF80FEFFFE
(1541515771.544749) can0 242#5280FFFFFFFFFD
(1541515771.544750) can0 29C#0000FFFFFFFFFFFF
(1541515771.544751) can0 354#0000000000000000
(1541515771.544752) can0 760#04624B077E000000
(1541515771.544752) can0 12E#C780027FF0FFFF00
(1541515771.544753) can0 090#00000000
(1541515771.544754) can0 0C6#90DB80007FFFA0F6
(1541515771.544755) can0 186#5D522E52E5FFF9
(1541515771.564404) can0 18A#2E500006B600
(1541515771.564408) can0 1F6#1E2081FF80FEFFFE
(1541515771.564409) can0 29A#00000000000008F7
(1541515771.564410) can0 2B7#00E0FFFE01
(1541515771.564411) can0 575#0E04
(1541515771.564411) can0 5D7#000003251B50C0
(1541515771.564412) can0 350#C715FA6314986485
(1541515771.564413) can0 55D#00D5600091800000
(1541515771.564414) can0 740#03224B0400000000
(1541515771.564415) can0 760#05624B0400000000
(1541515771.564416) can0 217#FEFFF8000000C0
(1541515771.564416) can0 2C6#FFFFFFFFFFF0
(1541515771.564417) can0 090#00000000
(1541515771.564418) can0 0C6#90DB800A7FFFA2EA
(1541515771.564419) can0 12E#C780027FF0FFFF00
(1541515771.564420) can0 186#5D2E2E52E5FFF9
(1541515771.564422) can0 18A#2E500006B600
(1541515771.564423) can0 1F6#1E2081FF80FEFFFE
(1541515771.564424) can0 242#5280FFFFFFFFFD
(1541515771.564424) can0 29C#0000FFFFFFFFFFFF
(1541515771.564425) can0 352#5C000000
(1541515771.564426) can0 552#0E04
(1541515771.564427) can0 740#03224B2400000000
(1541515771.564428) can0 12E#C780017FF0FFFF00
(1541515771.564429) can0 090#00000000
(1541515771.564430) can0 0C6#90DB7FF67FFFA4FD
(1541515771.584127) can0 186#5D522E52E5FFF9
(1541515771.584131) can0 18A#2E500006B600
(1541515771.584133) can0 1F6#1E2081FF80FEFFFE
(1541515771.584134) can0 29A#00000000000009F6
(1541515771.584135) can0 2B7#00E0FFFE01
(1541515771.584135) can0 5DE#0008000000000002
(1541515771.584136) can0 666#7D020000
(1541515771.584137) can0 760#05624B2407670000
(1541515771.584138) can0 653#00400800
(1541515771.584139) can0 740#03224B3900000000
(1541515771.584141) can0 217#FEFFF8000000C0
(1541515771.584142) can0 090#00000000
(1541515771.584143) can0 0C6#90DB80007FFFA6F0
(1541515771.584144) can0 12E#C780017FF0FFFF00
(1541515771.584145) can0 186#5D3E2E52E5FFF9
(1541515771.584146) can0 18A#2E500006B600
(1541515771.584147) can0 1F6#1E2081FF80FEFFFE
(1541515771.584148) can0 242#5280FFFFFFFFFD
(1541515771.584149) can0 29C#0000FFFFFFFFFFFF
(1541515771.584150) can0 2C6#FFFFFFFFFFF0
(1541515771.584151) can0 354#0000000000000000
(1541515771.584151) can0 673#0018FFFFFFFF00
(1541515771.584152) can0 564#E500
(1541515771.584153) can0 760#04624B397D000000
(1541515771.584154) can0 12E#C780007FE0FFFF00
(1541515771.598554) can0 090#00000000
(1541515771.598558) can0 0C6#90DB80007FFFA8EE
(1541515771.598560) can0 186#5D542E52E5FFF9
(1541515771.598561) can0 18A#2E500006B600
(1541515771.598562) can0 1F6#1E2081FF80FEFFFE
(1541515771.598562) can0 29A#0000000000000AF5
(1541515771.598563) can0 2B7#00E0FFFE01
(1541515771.598564) can0 657#0000
(1541515771.598565) can0 500#0219CC1CE0
(1541515771.598566) can0 740#03224B3700000000
(1541515771.598567) can0 4F8#4A1030FFFF03FF00
(1541515771.598568) can0 217#FEFFF8000000C0
(1541515771.598568) can0 090#00000000
(1541515771.598569) can0 0C6#90DB800A7FFFAAE2
(1541515771.598570) can0 12E#C780007FE0FFFF00
(1541515771.598571) can0 186#5D2E2E52E5FFF9
(1541515771.598572) can0 18A#2E500006B600
(1541515771.598572) can0 1F6#1E2081FF80FEFFFE
(1541515771.598573) can0 242#5280FFFFFFFFFD
(1541515771.598574) can0 29C#0000FFFFFFFFFFFF
(1541515771.598575) can0 2BC#94D2F881ADA0B956
(1541515771.598577) can0 2C6#FFFFFFFFFFF0
(1541515771.598578) can0 352#5C000000
(1541515771.598578) can0 45C#00000000
(1541515771.598579) can0 4AC#80
(1541515771.598580) can0 5DF#0084
(1541515771.598581) can0 3B7#FFFF7FCFFE40
(1541515771.615610) can0 760#04624B377F000000
(1541515771.615614) can0 740#03224B0E00000000
(1541515771.615615) can0 12E#C780007FE0FFFF00
(1541515771.615616) can0 090#00000000
(1541515771.615617) can0 0C6#90DB80007FFFACEA
(1541515771.615618) can0 186#5D522E52E5FFF9
(1541515771.615619) can0 18A#2E500006B600
(1541515771.615621) can0 1F6#1E2081FF80FEFFFE
(1541515771.615621) can0 29A#0000000000000BF4
(1541515771.615622) can0 2B7#00E0FFFE01
(1541515771.615623) can0 66A#2FFF600101C01F00
(1541515771.615624) can0 511#001B5DAB466D0D
(1541515771.615625) can0 5DA#FF7100004EFFFF00
(1541515771.615627) can0 648#FFFFF07FFE7FFE00
(1541515771.615627) can0 65C#FEFF
(1541515771.615628) can0 760#04624B0E00000000
(1541515771.615629) can0 740#03224B0B00000000
(1541515771.615630) can0 217#FEFFF8000000C0
(1541515771.615631) can0 090#00000000
(1541515771.615632) can0 0C6#90DB80007FFFAEE8
(1541515771.615633) can0 12E#C780007FE0FFFF00
(1541515771.615634) can0 186#5D2E2E52E5FFF9
(1541515771.615635) can0 18A#2E500006B600
(1541515771.615635) can0 1F6#1E2081FF80FEFFFE
(1541515771.615636) can0 242#5280FFFFFFFFFD
(1541515771.636162) can0 29C#0000FFFFFFFFFFFF
(1541515771.636166) can0 2C6#FFFFFFFFFFF0
(1541515771.636168) can0 354#0000000000000000
(1541515771.636169) can0 760#04624B0B7F000000
(1541515771.636170) can0 740#03224B0C00000000
(1541515771.636171) can0 12E#C780007FE0FFFF00
(1541515771.636172) can0 090#00000000
(1541515771.636173) can0 0C6#90DB7FF67FFFB0F1
(1541515771.636174) can0 186#5D542E52E5FFF9
(1541515771.636175) can0 18A#2E500006B600
(1541515771.636176) can0 1F6#1E2081FF80FEFFFE
(1541515771.636177) can0 29A#0000000000000CF3
(1541515771.636178) can0 2B7#00E0FFFE01
(1541515771.636179) can0 760#05624B0C7FFE0000
(1541515771.636180) can0 740#03224B0600000000
(1541515771.636181) can0 12E#C780007FE0FFFF00
(1541515771.636182) can0 090#00000000
(1541515771.636183) can0 0C6#90DB80007FFFB2E4
(1541515771.636184) can0 186#5D3C2E52E5FFF9
(1541515771.636185) can0 18A#2E500006B600
(1541515771.636186) can0 1F6#1E2081FF80FEFFFE
(1541515771.636187) can0 242#5280FFFFFFFFFD
(1541515771.636188) can0 29C#0000FFFFFFFFFFFF
(1541515771.636189) can0 217#FEFFF8000000C0
(1541515771.636190) can0 2C6#FFFFFFFFFFF0
(1541515771.656250) can0 352#5C000000
(1541515771.656254) can0 760#07624B06003251B5
(1541515771.656255) can0 12E#C780007FE0FFFF00
(1541515771.656256) can0 090#00000000
(1541515771.656257) can0 0C6#90DB80007FFFB4E2
(1541515771.656258) can0 186#5D542E52E5FFF9
(1541515771.656259) can0 18A#2E500006B600
(1541515771.656260) can0 1F6#1E2081FF80FEFFFE
(1541515771.656261) can0 29A#0000000000000DF2
(1541515771.656261) can0 2B7#00E0FFFE01
(1541515771.656263) can0 575#2714
(1541515771.656264) can0 5D7#000003251B50C0
(1541515771.656265) can0 350#C715FA6314986485
(1541515771.656265) can0 55D#00D5600091800000
(1541515771.656266) can0 740#03224B0300000000
(1541515771.656268) can0 12E#C780007FE0FFFF00
(1541515771.656269) can0 090#00000000
(1541515771.656270) can0 0C6#90DB800A7FFFB6D6
(1541515771.656271) can0 186#5D2E2E52E5FFF9
(1541515771.656271) can0 18A#2E500006B600
(1541515771.656272) can0 1F6#1E2081FF80FEFFFE
(1541515771.656273) can0 242#5280FFFFFFFFFD
(1541515771.656274) can0 29C#0000FFFFFFFFFFFF
(1541515771.656275) can0 217#FEFFF8000000C0
(1541515771.656276) can0 2C6#FFFFFFFFFFF0
(1541515771.675695) can0 354#0000000000000000
(1541515771.675699) can0 552#2714
(1541515771.675700) can0 760#05624B03FFFF0000
(1541515771.675701) can0 740#03224B0000000000
(1541515771.675702) can0 12E#C780017FE0FFFF00
(1541515771.675703) can0 090#00000000
(1541515771.675704) can0 0C6#90DB7FF67FFFB8E9
(1541515771.675705) can0 186#5D542E52E5FFF9
(1541515771.675706) can0 18A#2E500006B600
(1541515771.675708) can0 1F6#1E2081FF80FEFFFE
(1541515771.675709) can0 29A#0000000000000EF1
(1541515771.675710) can0 2B7#00E0FFFE01
(1541515771.675711) can0 5DE#0008000000000002
(1541515771.675711) can0 666#7D020000
(1541515771.675712) can0 760#05624B0000000000
(1541515771.675713) can0 653#00400800
(1541515771.675714) can0 740#03224BBB00000000
(1541515771.675715) can0 760#037F221200000000
(1541515771.675715) can0 12E#C780017FE0FFFF00
(1541515771.675716) can0 090#00000000
(1541515771.675717) can0 0C6#90DB80007FFFBADC
(1541515771.675718) can0 186#5D2C2E52E5FFF9
(1541515771.675719) can0 18A#2E500006B600
(1541515771.675721) can0 1F6#1E2081FF80FEFFFE
(1541515771.675722) can0 242#5280FFFFFFFFFD
(1541515771.675723) can0 29C#0000FFFFFFFFFFFF
(1541515771.694876) can0 352#5C000000
(1541515771.694882) can0 217#FEFFF8000000C0
(1541515771.694883) can0 2C6#FFFFFFFFFFF0
(1541515771.694885) can0 673#0018FFFFFFFF00
(1541515771.694887) can0 740#03224B1000000000
(1541515771.694888) can0 760#037F221200000000
(1541515771.694889) can0 564#D420
(1541515771.694890) can0 740#03224B1100000000
(1541515771.694892) can0 12E#C780017FE0FFFF00
(1541515771.694893) can0 090#00000000
(1541515771.694894) can0 0C6#90DB80007FFFBCDA
(1541515771.694895) can0 1F6#1E2081FF80FEFFFE
(1541515771.694897) can0 186#5D622E52E5FFF9
(1541515771.694898) can0 18A#2E500006B600
(1541515771.694899) can0 29A#0000000000000FF0
(1541515771.694900) can0 2B7#00E0FFFE01
(1541515771.694901) can0 657#0000
(1541515771.694902) can0 500#02EFD69271
(1541515771.694903) can0 4F8#4A1030FFFF03FF00
(1541515771.694905) can0 760#04624B1100000000
(1541515771.694906) can0 217#FEFFF8000000C0
(1541515771.694907) can0 2C6#FFFFFFFFFFF0
(1541515771.694908) can0 12E#C780017FE0FFFF00
(1541515771.694910) can0 090#00000000
(1541515771.694911) can0 0C6#90DB80007FFFBED8
(1541515771.694912) can0 242#5280FFFFFFFFFD
(1541515771.713681) can0 29C#0000FFFFFFFFFFFF
(1541515771.713687) can0 354#0000000000000000
(1541515771.713689) can0 2BC#94521DAB3A66C6FD
(1541515771.713691) can0 45C#00000000
(1541515771.713692) can0 1F6#1E2081FF80FEFFFE
(1541515771.713694) can0 186#5D522E52E5FFF9
(1541515771.713695) can0 18A#2E500006B600
(1541515771.713696) can0 4AC#80
(1541515771.713697) can0 5DF#0084
(1541515771.713698) can0 3B7#FFFF7FCFFE40
(1541515771.713700) can0 12E#C780007FE0FFFF00
(1541515771.713701) can0 090#00000000
(1541515771.713702) can0 0C6#90DB80007FFFA0F6
(1541515771.713703) can0 1F6#1E2081FF80FEFFFE
(1541515771.713705) can0 186#5D522E52E5FFF9
(1541515771.713706) can0 18A#2E500006B600
(1541515771.713707) can0 29A#00000000000000FF
(1541515771.713708) can0 2B7#00E0FFFE01
(1541515771.713709) can0 66A#2FFF600101C01F00
(1541515771.713710) can0 511#005A2664B17AF0
(1541515771.713712) can0 5DA#FF7100004EFFFF00
(1541515771.713713) can0 648#FFFFF07FFE7FFE00
(1541515771.713714) can0 65C#FEFF
(1541515771.713715) can0 646#03FFFFFFFFFFFFF0
(1541515771.713716) can0 740#03224B3600000000
(1541515771.713718) can0 217#FEFFF8000000C0
(1541515771.734659) can0 2C6#FFFFFFFFFFF0
(1541515771.734665) can0 12E#C780007FE0FFFF00
(1541515771.734667) can0 090#00000000
(1541515771.734668) can0 0C6#90DB800A7FFFA2EA
(1541515771.734670) can0 242#5280FFFFFFFFFD
(1541515771.734671) can0 29C#0000FFFFFFFFFFFF
(1541515771.734673) can0 352#5C000000
(1541515771.734674) can0 1F6#1E2081FF80FEFFFE
(1541515771.734675) can0 186#5D4E2E52E5FFF9
(1541515771.734677) can0 18A#2E500006B600
(1541515771.734678) can0 760#04624B367F000000
(1541515771.734679) can0 12E#C680007FE0FFFF00
(1541515771.734680) can0 090#00000000
(1541515771.734681) can0 0C6#90DB80007FFFA4F2
(1541515771.734683) can0 29A#00000000000001FE
(1541515771.734684) can0 2B7#00E0FFFE01
(1541515771.734685) can0 1F6#1E2081FF80FEFFFE
(1541515771.734686) can0 186#5D4E2E52E5FFF9
(1541515771.734689) can0 18A#2E500006B600
(1541515771.734690) can0 740#03224B0200000000
(1541515771.734691) can0 217#FEFFF8000000C0
(1541515771.734692) can0 2C6#FFFFFFFFFFF0
(1541515771.734693) can0 760#05624B0200000000
(1541515771.734694) can0 090#00000000
(1541515771.734696) can0 0C6#90DB7FF67FFFA6FB
(1541515771.734697) can0 12E#C680007FE0FFFF00
(1541515771.754356) can0 242#5280FFFFFFFFFD
(1541515771.754365) can0 29C#0000FFFFFFFFFFFF
(1541515771.754367) can0 354#0000000000000000
(1541515771.754369) can0 1F6#1E2081FF80FEFFFE
(1541515771.754371) can0 186#5D302E52E5FFF9
(1541515771.754373) can0 18A#2E500006B600
(1541515771.754374) can0 740#0322012F00000000
(1541515771.754376) can0 12E#C780007FE0FFFF00
(1541515771.754377) can0 090#00000000
(1541515771.754379) can0 0C6#90DB80007FFFA8EE
(1541515771.754381) can0 29A#00000000000002FD
(1541515771.754383) can0 2B7#00E0FFFE01
(1541515771.754384) can0 5D7#000003251B50C0
(1541515771.754386) can0 575#06A4
(1541515771.754387) can0 350#C715FA6314986485
(1541515771.754389) can0 1F6#1E2081FF80FEFFFE
(1541515771.754390) can0 186#5D622E52E5FFF9
(1541515771.754392) can0 18A#2E500006B600
(1541515771.754393) can0 55D#00D5600091800000
(1541515771.754395) can0 760#0462012F87000000
(1541515771.754396) can0 740#03224B0100000000
(1541515771.754398) can0 217#FEFFF8000000C0
(1541515771.754399) can0 2C6#FFFFFFFFFFF0
(1541515771.754401) can0 12E#C780007FE0FFFF00
(1541515771.754402) can0 090#00000000
(1541515771.774611) can0 0C6#90DB800A7FFFAAE2
(1541515771.774620) can0 242#5280FFFFFFFFFD
(1541515771.774624) can0 29C#0000FFFFFFFFFFFF
(1541515771.774627) can0 352#5C000000
(1541515771.774629) can0 552#06A4
(1541515771.774632) can0 1F6#1E2081FF80FEFFFE
(1541515771.774634) can0 186#5D302E52E5FFF9
(1541515771.774637) can0 18A#2E500006B600
(1541515771.774638) can0 760#05624B0100000000
(1541515771.774640) can0 12E#C780027FE0FFFF00
(1541515771.774642) can0 090#00000000
(1541515771.774643) can0 0C6#90DB80007FFFACEA
(1541515771.774645) can0 29A#00000000000003FC
(1541515771.774647) can0 2B7#00E0FFFE01
(1541515771.774648) can0 666#7D020000
(1541515771.774649) can0 5DE#0008000000000002
(1541515771.774651) can0 1F6#1E2081FF80FEFFFE
(1541515771.774653) can0 186#5D522E52E5FFF9
(1541515771.774654) can0 18A#2E500006B600
(1541515771.774656) can0 740#03224B3500000000
(1541515771.774657) can0 653#00400800
(1541515771.774659) can0 217#FEFFF8000000C0
(1541515771.774660) can0 2C6#FFFFFFFFFFF0
(1541515771.774662) can0 12E#C780027FE0FFFF00
(1541515771.774664) can0 090#00000000
(1541515771.774665) can0 0C6#90DB80007FFFAEE8
(1541515771.793832) can0 242#5280FFFFFFFFFD
(1541515771.793840) can0 29C#0000FFFFFFFFFFFF
(1541515771.793842) can0 354#0000000000000000
(1541515771.793844) can0 673#0018FFFFFFFF00
(1541515771.793846) can0 1F6#1E2081FF80FEFFFE
(1541515771.793848) can0 186#5D4E2E52E5FFF9
(1541515771.793850) can0 18A#2E500006B600
(1541515771.793852) can0 760#1008624B350CC020
(1541515771.793853) can0 564#E620
(1541515771.793855) can0 740#3000000000000000
(1541515771.793856) can0 760#2100000000000000
(1541515771.793858) can0 12E#C780027FE0FFFF00
(1541515771.793859) can0 090#00000000
(1541515771.793861) can0 0C6#90DB7FF67FFFB0F1
(1541515771.793864) can0 186#5D4E2E52E5FFF9
(1541515771.793865) can0 18A#2E500006B600
(1541515771.793867) can0 1F6#1E2081FF80FEFFFE
(1541515771.793869) can0 29A#00000000000004FB
(1541515771.793870) can0 2B7#00E0FFFE01
(1541515771.793871) can0 657#0000
(1541515771.793873) can0 740#0322010000000000
(1541515771.793874) can0 500#02DED2946A
(1541515771.793876) can0 4F8#4A1030FFFF03FF00
(1541515771.793877) can0 217#FEFFF8000000C0
(1541515771.793879) can0 2C6#FFFFFFFFFFF0
(1541515771.806898) can0 760#0562010090DB0000
(1541515771.806905) can0 090#00000000
(1541515771.806908) can0 0C6#90DB80007FFFB2E4
(1541515771.806911) can0 12E#C780027FE0FFFF00
(1541515771.806912) can0 186#5D402E52E5FFF9
(1541515771.806914) can0 18A#2E500006B600
(1541515771.806916) can0 1F6#1E2081FF80FEFFFE
(1541515771.806917) can0 242#5280FFFFFFFFFD
(1541515771.806919) can0 29C#0000FFFFFFFFFFFF
(1541515771.806921) can0 2BC#94477443D36C649A
(1541515771.806922) can0 352#5C000000
(1541515771.806924) can0 45C#00000000
(1541515771.806925) can0 4AC#80
(1541515771.806926) can0 5DF#0084
(1541515771.806928) can0 740#03224B0700000000
(1541515771.806930) can0 3B7#FFFF7FCFFE40
(1541515771.806931) can0 12E#C780007FE0FFFF00
(1541515771.806933) can0 090#00000000
(1541515771.806934) can0 0C6#90DB80007FFFB4E2
(1541515771.806936) can0 186#5D522E52E5FFF9
(1541515771.806937) can0 18A#2E500006B600
(1541515771.806939) can0 1F6#1E2081FF80FEFFFE
(1541515771.806941) can0 29A#00000000000005FA
(1541515771.806942) can0 2B7#00E0FFFE01
(1541515771.806944) can0 66A#2FFF600101C01F00
(1541515771.806945) can0 511#0099EF1D1C87D3
(1541515771.806947) can0 5DA#FF7100004EFFFF00
(1541515771.833295) can0 648#FFFFF07FFE7FFE00
(1541515771.833304) can0 65C#FEFF
(1541515771.833306) can0 760#04624B077E000000
(1541515771.833308) can0 740#03224B0400000000
(1541515771.833310) can0 217#FEFFF8000000C0
(1541515771.833312) can0 2C6#FFFFFFFFFFF0
(1541515771.833314) can0 12E#C780007FE0FFFF00
(1541515771.833315) can0 090#00000000
(1541515771.833317) can0 0C6#90DB800A7FFFB6D6
(1541515771.833319) can0 186#5D2E2E52E5FFF9
(1541515771.833322) can0 18A#2E500006B600
(1541515771.833323) can0 1F6#1E2081FF80FEFFFE
(1541515771.833325) can0 242#5280FFFFFFFFFD
(1541515771.833326) can0 29C#0000FFFFFFFFFFFF
(1541515771.833328) can0 354#0000000000000000
(1541515771.833330) can0 760#05624B0400000000
(1541515771.833332) can0 12E#C780007FE0FFFF00
(1541515771.833333) can0 090#00000000
(1541515771.833335) can0 0C6#90DB7FF67FFFB8E9
(1541515771.833336) can0 186#5D542E52E5FFF9
(1541515771.833338) can0 18A#2E500006B600
(1541515771.833340) can0 1F6#1E2081FF80FEFFFE
(1541515771.833341) can0 29A#00000000000006F9
(1541515771.833343) can0 2B7#00E0FFFE01
(1541515771.833344) can0 740#03224B2400000000
(1541515771.853320) can0 217#FEFFF8000000C0
(1541515771.853327) can0 2C6#FFFFFFFFFFF0
(1541515771.853329) can0 12E#C780007FE0FFFF00
(1541515771.853331) can0 090#00000000
(1541515771.853333) can0 0C6#90DB80007FFFBADC
(1541515771.853334) can0 186#5D2E2E52E5FFF9
(1541515771.853336) can0 18A#2E500006B600
(1541515771.853338) can0 1F6#1E2081FF80FEFFFE
(1541515771.853340) can0 242#5280FFFFFFFFFD
(1541515771.853341) can0 29C#0000FFFFFFFFFFFF
(1541515771.853344) can0 352#5C000000
(1541515771.853346) can0 760#05624B2407670000
(1541515771.853348) can0 12E#C780007FE0FFFF00
(1541515771.853350) can0 090#00000000
(1541515771.853351) can0 0C6#90DB80007FFFBCDA
(1541515771.853353) can0 186#5D522E52E5FFF9
(1541515771.853355) can0 18A#2E500006B600
(1541515771.853357) can0 1F6#1E2081FF80FEFFFE
(1541515771.853358) can0 29A#00000000000007F8
(1541515771.853360) can0 2B7#00E0FFFE01
(1541515771.853361) can0 575#3644
(1541515771.853362) can0 5D7#000003251B50C0
(1541515771.853364) can0 350#C715FA6314986485
(1541515771.853366) can0 55D#00D5600091800000
(1541515771.853367) can0 740#03224B3900000000
(1541515771.873560) can0 217#FEFFF8000000C0
(1541515771.873568) can0 2C6#FFFFFFFFFFF0
(1541515771.873570) can0 12E#C780007FE0FFFF00
(1541515771.873572) can0 090#00000000
(1541515771.873573) can0 0C6#90DB80007FFFBED8
(1541515771.873575) can0 186#5D3E2E52E5FFF9
(1541515771.873577) can0 18A#2E500006B600
(1541515771.873579) can0 1F6#1E2081FF80FEFFFE
(1541515771.873581) can0 242#5280FFFFFFFFFD
(1541515771.873582) can0 29C#0000FFFFFFFFFFFF
(1541515771.873584) can0 354#0000000000000000
(1541515771.873586) can0 552#3644
(1541515771.873588) can0 760#04624B397D000000
(1541515771.873589) can0 740#03224B3700000000
(1541515771.873591) can0 12E#C780007FE0FFFF00
(1541515771.873593) can0 090#00000000
(1541515771.873595) can0 0C6#90DB80007FFFA0F6
(1541515771.873597) can0 186#5D522E52E5FFF9
(1541515771.873598) can0 18A#2E500006B600
(1541515771.873600) can0 1F6#1E2081FF80FEFFFE
(1541515771.873601) can0 29A#00000000000008F7
(1541515771.873603) can0 2B7#00E0FFFE01
(1541515771.873604) can0 5DE#0008000000000002
(1541515771.873606) can0 666#7D020000
(1541515771.873607) can0 653#00400800
(1541515771.873609) can0 217#FEFFF8000000C0
(1541515771.892167) can0 2C6#FFFFFFFFFFF0
(1541515771.892175) can0 760#04624B377F000000
(1541515771.892176) can0 090#00000000
(1541515771.892177) can0 0C6#90DB800A7FFFA2EA
(1541515771.892178) can0 12E#C780007FE0FFFF00
(1541515771.892179) can0 186#5D2E2E52E5FFF9
(1541515771.892180) can0 18A#2E500006B600
(1541515771.892181) can0 1F6#1E2081FF80FEFFFE
(1541515771.892182) can0 242#5280FFFFFFFFFD
(1541515771.892183) can0 29C#0000FFFFFFFFFFFF
(1541515771.892183) can0 352#5C000000
(1541515771.892184) can0 673#0018FFFFFFFF00
(1541515771.892185) can0 740#03224B0E00000000
(1541515771.892186) can0 564#C730
(1541515771.892187) can0 12E#C780007FE0FFFF00
(1541515771.892188) can0 090#00000000
(1541515771.892189) can0 0C6#90DB80007FFFA4F2
(1541515771.892190) can0 186#5D542E52E5FFF9
(1541515771.892191) can0 18A#2E500006B600
(1541515771.892192) can0 1F6#1E2081FF80FEFFFE
(1541515771.892192) can0 29A#00000000000009F6
(1541515771.892193) can0 2B7#00E0FFFE01
(1541515771.892194) can0 657#0000
(1541515771.892195) can0 500#02C8175B64
(1541515771.892196) can0 4F8#4A1030FFFF03FF00
(1541515771.892196) can0 760#04624B0E00000000
(1541515771.906023) can0 740#03224B0B00000000
(1541515771.906027) can0 217#FEFFF8000000C0
(1541515771.906028) can0 2C6#FFFFFFFFFFF0
(1541515771.906029) can0 12E#C780007FE0FFFF00
(1541515771.906030) can0 090#00000000
(1541515771.906031) can0 0C6#90DB7FF67FFFA6FB
(1541515771.906032) can0 186#5D2C2E52E5FFF9
(1541515771.906033) can0 18A#2E500006B600
(1541515771.906033) can0 1F6#1E2081FF80FEFFFE
(1541515771.906035) can0 242#5280FFFFFFFFFD
(1541515771.906035) can0 29C#0000FFFFFFFFFFFF
(1541515771.906037) can0 2BC#94EEBC6A1093575D
(1541515771.906038) can0 354#0000000000000000
(1541515771.906039) can0 45C#00000000
(1541515771.906040) can0 4AC#80
(1541515771.906041) can0 5DF#0084
(1541515771.906042) can0 3B7#FFFF7FCFFE40
(1541515771.906042) can0 760#04624B0B7F000000
(1541515771.906043) can0 1F6#1E2081FF80FEFFFE
(1541515771.906044) can0 090#00000000
(1541515771.906045) can0 0C6#90DB80007FFFA8EE
(1541515771.906046) can0 12E#C780017FE0FFFF00
(1541515771.906047) can0 186#5D642E52E5FFF9
(1541515771.906048) can0 18A#2E500006B600
(1541515771.906049) can0 29A#0000000000000AF5
(1541515771.906050) can0 2B7#00E0FFFE01
(1541515771.925362) can0 66A#2FFF600101C01F00
(1541515771.925370) can0 511#00D8B8D68794B6
(1541515771.925371) can0 5DA#FF7100004EFFFF00
(1541515771.925373) can0 648#FFFFF07FFE7FFE00
(1541515771.925374) can0 65C#FEFF
(1541515771.925375) can0 740#03224B0C00000000
(1541515771.925376) can0 217#FEFFF8000000C0
(1541515771.925377) can0 2C6#FFFFFFFFFFF0
(1541515771.925378) can0 1F6#1E2081FF80FEFFFE
(1541515771.925379) can0 090#00000000
(1541515771.925380) can0 0C6#90DB800A7FFFAAE2
(1541515771.925381) can0 12E#C780017FE0FFFF00
(1541515771.925382) can0 186#5D2E2E52E5FFF9
(1541515771.925383) can0 18A#2E500006B600
(1541515771.925384) can0 242#5280FFFFFFFFFD
(1541515771.925385) can0 29C#0000FFFFFFFFFFFF
(1541515771.925386) can0 352#5C000000
(1541515771.925387) can0 760#05624B0C7FFE0000
(1541515771.925388) can0 740#03224B0600000000
(1541515771.925389) can0 12E#C780007FE0FFFF00
(1541515771.925390) can0 090#00000000
(1541515771.925391) can0 0C6#90DB80007FFFACEA
(1541515771.925392) can0 186#5D522E52E5FFF9
(1541515771.925393) can0 18A#2E500006B600
(1541515771.925394) can0 1F6#1E2081FF80FEFFFE
(1541515771.925394) can0 29A#0000000000000BF4
(1541515771.946043) can0 2B7#00E0FFFE01
(1541515771.946047) can0 760#07624B06003251B5
(1541515771.946048) can0 740#03224B0300000000
(1541515771.946049) can0 217#FEFFF8000000C0
(1541515771.946050) can0 2C6#FFFFFFFFFFF0
(1541515771.946051) can0 12E#C780007FE0FFFF00
(1541515771.946052) can0 090#00000000
(1541515771.946053) can0 0C6#90DB80007FFFAEE8
(1541515771.946054) can0 186#5D302E52E5FFF9
(1541515771.946054) can0 18A#2E500006B600
(1541515771.946055) can0 1F6#1E2081FF80FEFFFE
(1541515771.946056) can0 242#5280FFFFFFFFFD
(1541515771.946058) can0 29C#0000FFFFFFFFFFFF
(1541515771.946059) can0 354#0000000000000000
(1541515771.946060) can0 760#05624B03FFFF0000
(1541515771.946061) can0 1F6#1E2081FF80FEFFFE
(1541515771.946061) can0 090#00000000
(1541515771.946062) can0 0C6#90DB7FF67FFFB0F1
(1541515771.946063) can0 12E#C780007FE0FFFF00
(1541515771.946064) can0 186#5D522E52E5FFF9
(1541515771.946065) can0 18A#2E500006B600
(1541515771.946067) can0 29A#0000000000000CF3
(1541515771.946068) can0 2B7#00E0FFFE01
(1541515771.946068) can0 575#0884
(1541515771.946069) can0 5D7#000003251B50C0
(1541515771.965482) can0 350#C715FA6314986485
(1541515771.965485) can0 55D#00D5600091800000
(1541515771.965486) can0 740#03224B0000000000
(1541515771.965487) can0 217#FEFFF8000000C0
(1541515771.965488) can0 2C6#FFFFFFFFFFF0
(1541515771.965489) can0 1F6#1E2081FF80FEFFFE
(1541515771.965490) can0 090#00000000
(1541515771.965491) can0 0C6#90DB80007FFFB2E4
(1541515771.965491) can0 12E#C780007FE0FFFF00
(1541515771.965492) can0 186#5D2E2E52E5FFF9
(1541515771.965493) can0 18A#2E500006B600
(1541515771.965494) can0 242#5280FFFFFFFFFD
(1541515771.965495) can0 29C#0000FFFFFFFFFFFF
(1541515771.965496) can0 352#5C000000
(1541515771.965497) can0 552#0884
(1541515771.965498) can0 760#05624B0000000000
(1541515771.965499) can0 740#03224BBB00000000
(1541515771.965499) can0 760#037F221200000000
(1541515771.965500) can0 1F6#1E2081FF80FEFFFE
(1541515771.965501) can0 090#00000000
(1541515771.965502) can0 0C6#90DB80007FFFB4E2
(1541515771.965503) can0 12E#C780017FE0FFFF00
(1541515771.965504) can0 186#5D622E52E5FFF9
(1541515771.965504) can0 18A#2E500006B600
(1541515771.965505) can0 29A#0000000000000DF2
(1541515771.984970) can0 2B7#00E0FFFE01
(1541515771.984974) can0 5DE#0008000000000002
(1541515771.984975) can0 666#7D020000
(1541515771.984976) can0 740#03224B1000000000
(1541515771.984977) can0 760#037F221200000000
(1541515771.984977) can0 653#00400800
(1541515771.984978) can0 740#03224B1100000000
(1541515771.984979) can0 217#FEFFF8000000C0
(1541515771.984980) can0 2C6#FFFFFFFFFFF0
(1541515771.984981) can0 1F6#1E2081FF80FEFFFE
(1541515771.984982) can0 090#00000000
(1541515771.984983) can0 0C6#90DB800A7FFFB6D6
(1541515771.984983) can0 12E#C780017FE0FFFF00
(1541515771.984984) can0 186#5D302E52E5FFF9
(1541515771.984985) can0 18A#2E500006B600
(1541515771.984986) can0 242#5280FFFFFFFFFD
(1541515771.984986) can0 29C#0000FFFFFFFFFFFF
(1541515771.984987) can0 354#0000000000000000
(1541515771.984988) can0 673#0018FFFFFFFF00
(1541515771.984989) can0 760#04624B1100000000
(1541515771.984989) can0 564#D130
(1541515771.984990) can0 12E#C780027FE0FFFF00
(1541515771.984991) can0 090#00000000
(1541515771.984992) can0 0C6#90DB7FF67FFFB8E9
(1541515771.984992) can0 186#5D522E52E5FFF9
(1541515771.984993) can0 18A#2E500006B600
(1541515772.004792) can0 1F6#1E2081FF80FEFFFE
(1541515772.004802) can0 29A#0000000000000EF1
(1541515772.004804) can0 2B7#00E0FFFE01
(1541515772.004806) can0 657#0000
(1541515772.004809) can0 500#02F224A088
(1541515772.004811) can0 4F8#4A1030FFFF03FF00
(1541515772.004813) can0 217#FEFFF8000000C0
(1541515772.004815) can0 2C6#FFFFFFFFFFF0
(1541515772.004817) can0 12E#C780027FE0FFFF00
(1541515772.004819) can0 090#00000000
(1541515772.004821) can0 0C6#90DB80007FFFBADC
(1541515772.004823) can0 186#5D2E2E52E5FFF9
(1541515772.004825) can0 18A#2E500006B600
(1541515772.004827) can0 1F6#1E2081FF80FEFFFE
(1541515772.004828) can0 242#5280FFFFFFFFFD
(1541515772.004830) can0 29C#0000FFFFFFFFFFFF
(1541515772.004832) can0 2BC#943F181334DA19F3
(1541515772.004834) can0 352#5C000000
(1541515772.004837) can0 45C#00000000
(1541515772.004839) can0 4AC#80
(1541515772.004841) can0 5DF#0084
(1541515772.004843) can0 3B7#FFFF7FCFFE40
(1541515772.004844) can0 740#03224B3600000000
(1541515772.004846) can0 12E#C780027FE0FFFF00
(1541515772.004848) can0 090#00000000
(1541515772.004850) can0 0C6#90DB80007FFFBCDA
(1541515772.004852) can0 186#5D4E2E52E5FFF9
(1541515772.024562) can0 18A#2E500006B600
(1541515772.024566) can0 1F6#1E2081FF80FEFFFE
(1541515772.024567) can0 29A#0000000000000FF0
(1541515772.024568) can0 2B7#00E0FFFE01
(1541515772.024569) can0 66A#2FFF600101C01F00
(1541515772.024570) can0 511#0017818FF2A199
(1541515772.024570) can0 5DA#FF7100004EFFFF00
(1541515772.024571) can0 648#FFFFF07FFE7FFE00
(1541515772.024572) can0 65C#FEFF
(1541515772.024573) can0 217#FEFFF8000000C0
(1541515772.024574) can0 2C6#FFFFFFFFFFF0
(1541515772.024575) can0 760#04624B367F000000
(1541515772.024576) can0 090#00000000
(1541515772.024577) can0 0C6#90DB80007FFFBED8
(1541515772.024578) can0 12E#C780027FE0FFFF00
(1541515772.024579) can0 186#5D422E52E5FFF9
(1541515772.024580) can0 18A#2E500006B600
(1541515772.024580) can0 1F6#1E2081FF80FEFFFE
(1541515772.024581) can0 242#5280FFFFFFFFFD
(1541515772.024582) can0 29C#0000FFFFFFFFFFFF
(1541515772.024583) can0 354#0000000000000000
(1541515772.024584) can0 740#03224B0200000000
(1541515772.024584) can0 12E#C780007FE0FFFF00
(1541515772.024585) can0 090#00000000
(1541515772.024586) can0 0C6#90DB80007FFFA0F6
(1541515772.045328) can0 186#5D4E2E52E5FFF9
(1541515772.045332) can0 18A#2E500006B600
(1541515772.045333) can0 1F6#1E2081FF80FEFFFE
(1541515772.045334) can0 29A#00000000000000FF
(1541515772.045335) can0 2B7#00E0FFFE01
(1541515772.045336) can0 760#05624B0200000000
(1541515772.045337) can0 740#0322012F00000000
(1541515772.045338) can0 217#FEFFF8000000C0
(1541515772.045338) can0 2C6#FFFFFFFFFFF0
(1541515772.045339) can0 12E#C780007FE0FFFF00
(1541515772.045340) can0 090#00000000
(1541515772.045341) can0 0C6#90DB800A7FFFA2EA
(1541515772.045342) can0 186#5D302E52E5FFF9
(1541515772.045343) can0 18A#2E500006B600
(1541515772.045344) can0 1F6#1E2081FF80FEFFFE
(1541515772.045344) can0 242#5280FFFFFFFFFD
(1541515772.045345) can0 29C#0000FFFFFFFFFFFF
(1541515772.045346) can0 352#5C000000
(1541515772.045346) can0 760#0462012F86000000
(1541515772.045347) can0 1F6#1E2081FF80FEFFFE
(1541515772.045348) can0 090#00000000
(1541515772.045349) can0 0C6#90DB80007FFFA4F2
(1541515772.045350) can0 12E#C780027FF0FFFF00
(1541515772.045350) can0 186#5D522E52E5FFF9
(1541515772.045351) can0 18A#2E500006B600
(1541515772.065036) can0 29A#00000000000001FE
(1541515772.065040) can0 2B7#00E0FFFE01
(1541515772.065041) can0 575#39E4
(1541515772.065042) can0 5D7#000003251B50C0
(1541515772.065043) can0 350#C715FA6314986485
(1541515772.065044) can0 55D#00D5600091800000
(1541515772.065045) can0 740#03224B0100000000
(1541515772.065046) can0 217#FEFFF8000000C0
(1541515772.065047) can0 2C6#FFFFFFFFFFF0
(1541515772.065047) can0 760#05624B0100000000
(1541515772.065048) can0 12E#C780027FF0FFFF00
(1541515772.065049) can0 090#00000000
(1541515772.065050) can0 0C6#90DB7FF67FFFA6FB
(1541515772.065051) can0 186#5D2E2E52E5FFF9
(1541515772.065052) can0 18A#2E500006B600
(1541515772.065053) can0 1F6#1E2081FF80FEFFFE
(1541515772.065054) can0 242#5280FFFFFFFFFD
(1541515772.065055) can0 29C#0000FFFFFFFFFFFF
(1541515772.065056) can0 354#0000000000000000
(1541515772.065057) can0 552#39E4
(1541515772.065058) can0 740#03224B3500000000
(1541515772.065059) can0 12E#C780017FF0FFFF00
(1541515772.065059) can0 090#00000000
(1541515772.065060) can0 0C6#90DB80007FFFA8EE
(1541515772.065061) can0 186#5D522E52E5FFF9
(1541515772.065062) can0 18A#2E500006B600
(1541515772.084333) can0 1F6#1E2081FF80FEFFFE
(1541515772.084339) can0 29A#00000000000002FD
(1541515772.084340) can0 2B7#00E0FFFE01
(1541515772.084341) can0 5DE#0008000000000002
(1541515772.084342) can0 666#7D020000
(1541515772.084343) can0 760#1008624B350CC020
(1541515772.084344) can0 653#00400800
(1541515772.084345) can0 740#3000000000000000
(1541515772.084347) can0 760#2100000000000000
(1541515772.084348) can0 217#FEFFF8000000C0
(1541515772.084349) can0 2C6#FFFFFFFFFFF0
(1541515772.084350) can0 12E#C780017FF0FFFF00
(1541515772.084351) can0 090#00000000
(1541515772.084352) can0 0C6#90DB800A7FFFAAE2
(1541515772.084353) can0 186#5D3C2E52E5FFF9
(1541515772.084354) can0 18A#2E500006B600
(1541515772.084355) can0 1F6#1E2081FF80FEFFFE
(1541515772.084356) can0 242#5280FFFFFFFFFD
(1541515772.084357) can0 29C#0000FFFFFFFFFFFF
(1541515772.084358) can0 352#5C000000
(1541515772.084359) can0 673#0018FFFFFFFF00
(1541515772.084360) can0 740#0322010000000000
(1541515772.084361) can0 564#F5F0
(1541515772.084361) can0 760#0562010090DB0000
(1541515772.084362) can0 12E#C780017FF0FFFF00
(1541515772.084363) can0 090#00000000
(1541515772.097233) can0 0C6#90DB80007FFFACEA
(1541515772.097237) can0 186#5D542E52E5FFF9
(1541515772.097238) can0 18A#2E500006B600
(1541515772.097239) can0 1F6#1E2081FF80FEFFFE
(1541515772.097240) can0 29A#00000000000003FC
(1541515772.097241) can0 2B7#00E0FFFE01
(1541515772.097242) can0 657#0000
(1541515772.097243) can0 500#02B8EF139E
(1541515772.097244) can0 740#03224B0700000000
(1541515772.097244) can0 4F8#4A1030FFFF03FF00
(1541515772.097245) can0 217#FEFFF8000000C0
(1541515772.097246) can0 2C6#FFFFFFFFFFF0
(1541515772.097247) can0 760#04624B077E000000
(1541515772.097247) can0 090#00000000
(1541515772.097248) can0 0C6#90DB80007FFFAEE8
(1541515772.097249) can0 12E#C780017FF0FFFF00
(1541515772.097250) can0 186#5D2E2E52E5FFF9
(1541515772.097251) can0 18A#2E500006B600
(1541515772.097251) can0 1F6#1E2081FF80FEFFFE
(1541515772.097252) can0 242#5280FFFFFFFFFD
(1541515772.097253) can0 29C#0000FFFFFFFFFFFF
(1541515772.097254) can0 2BC#9411D7B9AFBC014F
(1541515772.097255) can0 354#0000000000000000
(1541515772.097255) can0 45C#00000000
(1541515772.097256) can0 4AC#80
(1541515772.097257) can0 5DF#0084
(1541515772.115340) can0 740#03224B0400000000
(1541515772.115343) can0 3B7#FFFF7FCFFE40
(1541515772.115345) can0 12E#C780007FE0FFFF00
(1541515772.115346) can0 090#00000000
(1541515772.115347) can0 0C6#90DB7FF67FFFB0F1
(1541515772.115348) can0 186#5D562E52E5FFF9
(1541515772.115349) can0 18A#2E500006B600
(1541515772.115350) can0 1F6#1E2081FF80FEFFFE
(1541515772.115350) can0 29A#00000000000004FB
(1541515772.115351) can0 2B7#00E0FFFE01
(1541515772.115352) can0 66A#2FFF600101C01F00
(1541515772.115353) can0 511#00564A485DAE7C
(1541515772.115354) can0 5DA#FF7100004EFFFF00
(1541515772.115355) can0 648#FFFFF07FFE7FFE00
(1541515772.115356) can0 65C#FEFF
(1541515772.115357) can0 760#05624B0400000000
(1541515772.115358) can0 740#03224B2400000000
(1541515772.115358) can0 217#FEFFF8000000C0
(1541515772.115359) can0 2C6#FFFFFFFFFFF0
(1541515772.115360) can0 1F6#1E2081FF80FEFFFE
(1541515772.115361) can0 090#00000000
(1541515772.115362) can0 0C6#90DB80007FFFB2E4
(1541515772.115362) can0 12E#C780007FE0FFFF00
(1541515772.115363) can0 186#5D2C2E52E5FFF9
(1541515772.115364) can0 18A#2E500006B600
(1541515772.144233) can0 242#5280FFFFFFFFFD
(1541515772.144237) can0 29C#0000FFFFFFFFFFFF
(1541515772.144239) can0 352#5C000000
(1541515772.144240) can0 12E#C780007FD0FFFF00
(1541515772.144241) can0 090#00000000
(1541515772.144242) can0 0C6#90DB80007FFFB4E2
(1541515772.144242) can0 186#5D622E52E5FFF9
(1541515772.144243) can0 18A#2E500006B600
(1541515772.144244) can0 1F6#1E2081FF80FEFFFE
(1541515772.144245) can0 29A#00000000000005FA
(1541515772.144246) can0 2B7#00E0FFFE01
(1541515772.144246) can0 217#FEFFF8000000C0
(1541515772.144247) can0 2C6#FFFFFFFFFFF0
(1541515772.144248) can0 760#05624B2407670000
(1541515772.144249) can0 090#00000000
(1541515772.144250) can0 0C6#90DB800A7FFFB6D6
(1541515772.144251) can0 12E#C780007FD0FFFF00
(1541515772.144251) can0 186#5D2E2E52E5FFF9
(1541515772.144252) can0 18A#2E500006B600
(1541515772.144253) can0 1F6#1E2081FF80FEFFFE
(1541515772.144254) can0 242#5280FFFFFFFFFD
(1541515772.144254) can0 29C#0000FFFFFFFFFFFF
(1541515772.144255) can0 354#0000000000000000
(1541515772.144256) can0 740#03224B3900000000
(1541515772.144257) can0 12E#C780007FD0FFFF00
(1541515772.144257) can0 090#00000000
(1541515772.164051) can0 0C6#90DB7FF67FFFB8E9
(1541515772.164055) can0 186#5D542E52E5FFF9
(1541515772.164056) can0 18A#2E500006B600
(1541515772.164057) can0 1F6#1E2081FF80FEFFFE
(1541515772.164058) can0 29A#00000000000006F9
(1541515772.164059) can0 2B7#00E0FFFE01
(1541515772.164060) can0 575#27C4
(1541515772.164060) can0 5D7#000003251B50C0
(1541515772.164061) can0 350#C715FA6314986485
(1541515772.164062) can0 55D#00D5600091800000
(1541515772.164063) can0 760#04624B397D000000
(1541515772.164064) can0 740#03224B3700000000
(1541515772.164065) can0 217#FEFFF8000000C0
(1541515772.164066) can0 2C6#FFFFFFFFFFF0
(1541515772.164067) can0 1F6#1E2081FF80FEFFFE
(1541515772.164068) can0 090#00000000
(1541515772.164068) can0 0C6#90DB80007FFFBADC
(1541515772.164069) can0 12E#C780007FD0FFFF00
(1541515772.164070) can0 186#5D2E2E52E5FFF9
(1541515772.164071) can0 18A#2E500006B600
(1541515772.164072) can0 242#5280FFFFFFFFFD
(1541515772.164072) can0 29C#0000FFFFFFFFFFFF
(1541515772.164073) can0 352#5C000000
(1541515772.164074) can0 552#27C4
(1541515772.164074) can0 760#04624B377F000000
(1541515772.177271) can0 12E#C780017FD0FFFF00
(1541515772.177276) can0 090#00000000
(1541515772.177277) can0 0C6#90DB80007FFFBCDA
(1541515772.177278) can0 186#5D522E52E5FFF9
(1541515772.177279) can0 18A#2E500006B600
(1541515772.177280) can0 1F6#1E2081FF80FEFFFE
(1541515772.177282) can0 29A#00000000000007F8
(1541515772.177283) can0 2B7#00E0FFFE01
(1541515772.177284) can0 5DE#0008000000000002
(1541515772.177285) can0 666#7D020000
(1541515772.177286) can0 740#03224B0E00000000
(1541515772.177288) can0 653#00400800
(1541515772.177289) can0 217#FEFFF8000000C0
(1541515772.177290) can0 2C6#FFFFFFFFFFF0
(1541515772.177291) can0 760#04624B0E00000000
(1541515772.177292) can0 090#00000000
(1541515772.177293) can0 0C6#90DB80007FFFBED8
(1541515772.177294) can0 12E#C780017FD0FFFF00
(1541515772.177295) can0 186#5D2E2E52E5FFF9
(1541515772.177296) can0 18A#2E500006B600
(1541515772.177297) can0 1F6#1E2081FF80FEFFFE
(1541515772.177298) can0 242#5280FFFFFFFFFD
(1541515772.177299) can0 29C#0000FFFFFFFFFFFF
(1541515772.177299) can0 354#0000000000000000
(1541515772.177300) can0 673#0018FFFFFFFF00
(1541515772.196082) can0 740#03224B0B00000000
(1541515772.196086) can0 564#E9B0
(1541515772.196087) can0 12E#C780027FD0FFFF00
(1541515772.196088) can0 090#00000000
(1541515772.196090) can0 0C6#90DB80007FFFA0F6
(1541515772.196090) can0 186#5D622E52E5FFF9
(1541515772.196091) can0 18A#2E500006B600
(1541515772.196092) can0 1F6#1E2081FF80FEFFFE
(1541515772.196093) can0 29A#00000000000008F7
(1541515772.196094) can0 2B7#00E0FFFE01
(1541515772.196095) can0 657#0000
(1541515772.196095) can0 500#027619227C
(1541515772.196096) can0 4F8#4A1030FFFF03FF00
(1541515772.196097) can0 760#04624B0B7F000000
(1541515772.196098) can0 740#03224B0C00000000
(1541515772.196098) can0 217#FEFFF8000000C0
(1541515772.196099) can0 2C6#FFFFFFFFFFF0
(1541515772.196100) can0 1F6#1E2081FF80FEFFFE
(1541515772.196101) can0 090#00000000
(1541515772.196101) can0 0C6#90DB800A7FFFA2EA
(1541515772.196102) can0 12E#C780027FD0FFFF00
(1541515772.196103) can0 186#5D302E52E5FFF9
(1541515772.196104) can0 18A#2E500006B600
(1541515772.196105) can0 242#5280FFFFFFFFFD
(1541515772.196106) can0 29C#0000FFFFFFFFFFFF
(1541515772.196107) can0 2BC#948ED31A70E760E2
(1541515772.196108) can0 352#5C000000
(1541515772.214666) can0 45C#00000000
(1541515772.214669) can0 4AC#80
(1541515772.214670) can0 5DF#0084
(1541515772.214672) can0 3B7#FFFF7FCFFE40
(1541515772.214673) can0 760#05624B0C7FFE0000
(1541515772.214674) can0 12E#C780007FD0FFFF00
(1541515772.214674) can0 090#00000000
(1541515772.214675) can0 0C6#90DB80007FFFA4F2
(1541515772.214676) can0 186#5D4E2E52E5FFF9
(1541515772.214677) can0 18A#2E500006B600
(1541515772.214678) can0 1F6#1E2081FF80FEFFFE
(1541515772.214679) can0 29A#00000000000009F6
(1541515772.214680) can0 2B7#00E0FFFE01
(1541515772.214681) can0 66A#2FFF600101C01F00
(1541515772.214682) can0 511#00951301C8BB5F
(1541515772.214683) can0 5DA#FF7100004EFFFF00
(1541515772.214684) can0 648#FFFFF07FFE7FFE00
(1541515772.214684) can0 65C#FEFF
(1541515772.214685) can0 740#03224B0600000000
(1541515772.214686) can0 646#03FFFFFFFFFFFFF0
(1541515772.214687) can0 217#FEFFF8000000C0
(1541515772.214687) can0 2C6#FFFFFFFFFFF0
(1541515772.214688) can0 760#07624B06003251B5
(1541515772.214689) can0 090#00000000
(1541515772.214690) can0 0C6#90DB7FF67FFFA6FB
(1541515772.214691) can0 12E#C780007FD0FFFF00
(1541515772.235305) can0 186#5D322E52E5FFF9
(1541515772.235310) can0 18A#2E500006B600
(1541515772.235311) can0 1F6#1E2081FF80FEFFFE
(1541515772.235312) can0 242#5280FFFFFFFFFD
(1541515772.235313) can0 29C#0000FFFFFFFFFFFF
(1541515772.235314) can0 354#0000000000000000
(1541515772.235314) can0 740#03224B0300000000
(1541515772.235315) can0 12E#C780007FD0FFFF00
(1541515772.235316) can0 090#00000000
(1541515772.235317) can0 0C6#90DB80007FFFA8EE
(1541515772.235318) can0 186#5D4E2E52E5FFF9
(1541515772.235319) can0 18A#2E500006B600
(1541515772.235320) can0 1F6#1E2081FF80FEFFFE
(1541515772.235321) can0 29A#0000000000000AF5
(1541515772.235322) can0 2B7#00E0FFFE01
(1541515772.235323) can0 760#05624B03FFFF0000
(1541515772.235323) can0 740#03224B0000000000
(1541515772.235324) can0 217#FEFFF8000000C0
(1541515772.235325) can0 2C6#FFFFFFFFFFF0
(1541515772.235326) can0 12E#C780007FD0FFFF00
(1541515772.235327) can0 090#00000000
(1541515772.235328) can0 0C6#90DB800A7FFFAAE2
(1541515772.235329) can0 186#5D402E52E5FFF9
(1541515772.235330) can0 18A#2E500006B600
(1541515772.235331) can0 1F6#1E2081FF80FEFFFE
(1541515772.255069) can0 242#5280FFFFFFFFFD
(1541515772.255075) can0 29C#0000FFFFFFFFFFFF
(1541515772.255076) can0 352#5C000000
(1541515772.255077) can0 760#05624B0000000000
(1541515772.255078) can0 1F6#1E2081FF80FEFFFE
(1541515772.255079) can0 090#00000000
(1541515772.255080) can0 0C6#90DB80007FFFACEA
(1541515772.255081) can0 12E#C780007FD0FFFF00
(1541515772.255082) can0 186#5D4E2E52E5FFF9
(1541515772.255083) can0 18A#2E500006B600
(1541515772.255084) can0 29A#0000000000000BF4
(1541515772.255086) can0 2B7#00E0FFFE01
(1541515772.255087) can0 575#3384
(1541515772.255088) can0 5D7#000003251B50C0
(1541515772.255089) can0 350#C715FA6314986485
(1541515772.255089) can0 55D#00D5600091800000
(1541515772.255090) can0 740#03224BBB00000000
(1541515772.255091) can0 760#037F221200000000
(1541515772.255092) can0 217#FEFFF8000000C0
(1541515772.255093) can0 2C6#FFFFFFFFFFF0
(1541515772.255094) can0 1F6#1E2081FF80FEFFFE
(1541515772.255094) can0 090#00000000
(1541515772.255095) can0 0C6#90DB80007FFFAEE8
(1541515772.255096) can0 12E#C780007FD0FFFF00
(1541515772.255097) can0 186#5D302E52E5FFF9
(1541515772.274808) can0 18A#2E500006B600
(1541515772.274812) can0 242#5280FFFFFFFFFD
(1541515772.274813) can0 29C#0000FFFFFFFFFFFF
(1541515772.274814) can0 354#0000000000000000
(1541515772.274815) can0 552#3384
(1541515772.274816) can0 740#03224B1000000000
(1541515772.274817) can0 760#037F221200000000
(1541515772.274817) can0 740#03224B1100000000
(1541515772.274818) can0 1F6#1E2081FF80FEFFFE
(1541515772.274819) can0 090#00000000
(1541515772.274820) can0 0C6#90DB7FF67FFFB0F1
(1541515772.274821) can0 12E#C780007FD0FFFF00
(1541515772.274822) can0 186#5D522E52E5FFF9
(1541515772.274823) can0 18A#2E500006B600
(1541515772.274823) can0 29A#0000000000000CF3
(1541515772.274824) can0 2B7#00E0FFFE01
(1541515772.274825) can0 5DE#0008000000000002
(1541515772.274826) can0 666#7D020000
(1541515772.274826) can0 760#04624B1100000000
(1541515772.274827) can0 653#00400800
(1541515772.274828) can0 217#FEFFF8000000C0
(1541515772.274829) can0 2C6#FFFFFFFFFFF0
(1541515772.274830) can0 12E#C780007FD0FFFF00
(1541515772.274830) can0 090#00000000
(1541515772.274833) can0 0C6#90DB80007FFFB2E4
(1541515772.274833) can0 186#5D2E2E52E5FFF9
(1541515772.295123) can0 18A#2E500006B600
(1541515772.295126) can0 1F6#1E2081FF80FEFFFE
(1541515772.295127) can0 242#5280FFFFFFFFFD
(1541515772.295128) can0 29C#0000FFFFFFFFFFFF
(1541515772.295129) can0 352#5C000000
(1541515772.295130) can0 673#0018FFFFFFFF00
(1541515772.295131) can0 564#C800
(1541515772.295132) can0 12E#C680027FD0FFFF00
(1541515772.295133) can0 090#00000000
(1541515772.295134) can0 0C6#90DB80007FFFB4E2
(1541515772.295135) can0 186#5D522E52E5FFF9
(1541515772.295136) can0 18A#2E500006B600
(1541515772.295137) can0 1F6#1E2081FF80FEFFFE
(1541515772.295138) can0 29A#0000000000000DF2
(1541515772.295139) can0 2B7#00E0FFFE01
(1541515772.295139) can0 657#0000
(1541515772.295140) can0 500#02EF5BC738
(1541515772.295141) can0 4F8#4A1030FFFF03FF00
(1541515772.295142) can0 740#03224B3600000000
(1541515772.295143) can0 217#FEFFF8000000C0
(1541515772.295144) can0 2C6#FFFFFFFFFFF0
(1541515772.295144) can0 12E#C680027FD0FFFF00
(1541515772.295145) can0 090#00000000
(1541515772.295146) can0 0C6#90DB800A7FFFB6D6
(1541515772.295147) can0 186#5D3E2E52E5FFF9
(1541515772.295147) can0 18A#2E500006B600
(1541515772.314042) can0 1F6#1E2081FF80FEFFFE
(1541515772.314047) can0 242#5280FFFFFFFFFD
(1541515772.314048) can0 29C#0000FFFFFFFFFFFF
(1541515772.314049) can0 2BC#943F34B17DCEA633
(1541515772.314050) can0 354#0000000000000000
(1541515772.314052) can0 45C#00000000
(1541515772.314052) can0 4AC#80
(1541515772.314053) can0 5DF#0084
(1541515772.314054) can0 3B7#FFFF7FCFFE40
(1541515772.314055) can0 760#04624B367F000000
(1541515772.314056) can0 12E#C680027FD0FFFF00
(1541515772.314057) can0 090#00000000
(1541515772.314057) can0 0C6#90DB7FF67FFFB8E9
(1541515772.314059) can0 186#5D542E52E5FFF9
(1541515772.314060) can0 18A#2E500006B600
(1541515772.314061) can0 1F6#1E2081FF80FEFFFE
(1541515772.314062) can0 29A#0000000000000EF1
(1541515772.314063) can0 2B7#00E0FFFE01
(1541515772.314064) can0 66A#2FFF600101C01F00
(1541515772.314065) can0 511#00D4DCBA33C842
(1541515772.314067) can0 5DA#FF7100004EFFFF00
(1541515772.314068) can0 648#FFFFF07FFE7FFE00
(1541515772.314068) can0 65C#FEFF
(1541515772.314069) can0 740#03224B0200000000
(1541515772.314070) can0 217#FEFFF8000000C0
(1541515772.314071) can0 2C6#FFFFFFFFFFF0
(1541515772.334633) can0 12E#C680027FD0FFFF00
(1541515772.334637) can0 090#00000000
(1541515772.334638) can0 0C6#90DB80007FFFBADC
(1541515772.334640) can0 186#5D2E2E52E5FFF9
(1541515772.334641) can0 18A#2E500006B600
(1541515772.334641) can0 1F6#1E2081FF80FEFFFE
(1541515772.334642) can0 242#5280FFFFFFFFFD
(1541515772.334643) can0 29C#0000FFFFFFFFFFFF
(1541515772.334644) can0 352#5C000000
(1541515772.334645) can0 760#05624B0200000000
(1541515772.334646) can0 740#0322012F00000000
(1541515772.334647) can0 12E#C680017FE0FFFF00
(1541515772.334647) can0 090#00000000
(1541515772.334648) can0 0C6#90DB80007FFFBCDA
(1541515772.334649) can0 186#5D542E52E5FFF9
(1541515772.334650) can0 18A#2E500006B600
(1541515772.334651) can0 1F6#1E2081FF80FEFFFE
(1541515772.334651) can0 29A#0000000000000FF0
(1541515772.334652) can0 2B7#00E0FFFE01
(1541515772.334653) can0 760#0462012F87000000
(1541515772.334653) can0 740#03224B0100000000
(1541515772.334654) can0 217#FEFFF8000000C0
(1541515772.334655) can0 2C6#FFFFFFFFFFF0
(1541515772.334656) can0 1F6#1E2081FF80FEFFFE
(1541515772.334657) can0 090#00000000
(1541515772.334658) can0 0C6#90DB80007FFFBED8
(1541515772.353637) can0 12E#C680017FE0FFFF00
(1541515772.353641) can0 186#5D2E2E52E5FFF9
(1541515772.353642) can0 18A#2E500006B600
(1541515772.353643) can0 242#5280FFFFFFFFFD
(1541515772.353644) can0 29C#0000FFFFFFFFFFFF
(1541515772.353645) can0 354#0000000000000000
(1541515772.353646) can0 760#05624B0100000000
(1541515772.353647) can0 740#03224B3500000000
(1541515772.353648) can0 12E#C780017FF0FFFF00
(1541515772.353649) can0 090#00000000
(1541515772.353650) can0 0C6#90DB80007FFFA0F6
(1541515772.353651) can0 186#5D602E52E5FFF9
(1541515772.353652) can0 18A#2E500006B600
(1541515772.353653) can0 1F6#1E2081FF80FEFFFE
(1541515772.353654) can0 29A#00000000000000FF
(1541515772.353655) can0 2B7#00E0FFFE01
(1541515772.353656) can0 575#04A4
(1541515772.353657) can0 5D7#000003251B50C0
(1541515772.353657) can0 350#C715FA6314986485
(1541515772.353658) can0 55D#00D5600091800000
(1541515772.353659) can0 760#1008624B350CC020
(1541515772.353660) can0 740#3000000000000000
(1541515772.353660) can0 760#2100000000000000
(1541515772.353661) can0 217#FEFFF8000000C0
(1541515772.373641) can0 2C6#FFFFFFFFFFF0
(1541515772.373645) can0 12E#C780017FF0FFFF00
(1541515772.373646) can0 090#00000000
(1541515772.373647) can0 0C6#90DB800A7FFFA2EA
(1541515772.373648) can0 186#5D302E52E5FFF9
(1541515772.373649) can0 18A#2E500006B600
(1541515772.373650) can0 1F6#1E2081FF80FEFFFE
(1541515772.373651) can0 242#5280FFFFFFFFFD
(1541515772.373651) can0 29C#0000FFFFFFFFFFFF
(1541515772.373652) can0 352#5C000000
(1541515772.373653) can0 552#04A4
(1541515772.373654) can0 740#0322010000000000
(1541515772.373655) can0 760#0562010090DB0000
(1541515772.373655) can0 12E#C780007FF0FFFF00
(1541515772.373656) can0 090#00000000
(1541515772.373657) can0 0C6#90DB80007FFFA4F2
(1541515772.373658) can0 186#5D522E52E5FFF9
(1541515772.373659) can0 18A#2E500006B600
(1541515772.373659) can0 1F6#1E2081FF80FEFFFE
(1541515772.373660) can0 29A#00000000000001FE
(1541515772.373661) can0 2B7#00E0FFFE01
(1541515772.373662) can0 5DE#0008000000000002
(1541515772.373662) can0 666#7D020000
(1541515772.373663) can0 740#03224B0700000000
(1541515772.373664) can0 653#00400800
(1541515772.373665) can0 217#FEFFF8000000C0
(1541515772.388617) can0 2C6#FFFFFFFFFFF0
(1541515772.388622) can0 760#04624B077E000000
(1541515772.388623) can0 090#00000000
(1541515772.388624) can0 0C6#90DB7FF67FFFA6FB
(1541515772.388625) can0 12E#C780007FF0FFFF00
(1541515772.388626) can0 186#5D2E2E52E5FFF9
(1541515772.388627) can0 18A#2E500006B600
(1541515772.388628) can0 1F6#1E2081FF80FEFFFE
(1541515772.388629) can0 242#5280FFFFFFFFFD
(1541515772.388630) can0 29C#0000FFFFFFFFFFFF
(1541515772.388631) can0 354#0000000000000000
(1541515772.388632) can0 673#0018FFFFFFFF00
(1541515772.388633) can0 740#03224B0400000000
(1541515772.388634) can0 564#C330
(1541515772.388635) can0 12E#C780017FE0FFFF00
(1541515772.388636) can0 090#00000000
(1541515772.388637) can0 0C6#90DB80007FFFA8EE
(1541515772.388638) can0 186#5D522E52E5FFF9
(1541515772.388639) can0 18A#2E500006B600
(1541515772.388639) can0 1F6#1E2081FF80FEFFFE
(1541515772.388640) can0 29A#00000000000002FD
(1541515772.388641) can0 2B7#00E0FFFE01
(1541515772.388642) can0 657#0000
(1541515772.388643) can0 500#020085044A
(1541515772.388643) can0 69F#7516451F
(1541515772.388644) can0 4F8#4A1030FFFF03FF00
(1541515772.406008) can0 760#05624B0400000000
(1541515772.406012) can0 740#03224B2400000000
(1541515772.406013) can0 217#FEFFF8000000C0
(1541515772.406014) can0 2C6#FFFFFFFFFFF0
(1541515772.406016) can0 1F6#1E2081FF80FEFFFE
(1541515772.406017) can0 090#00000000
(1541515772.406018) can0 0C6#90DB800A7FFFAAE2
(1541515772.406019) can0 12E#C780017FE0FFFF00
(1541515772.406020) can0 186#5D302E52E5FFF9
(1541515772.406021) can0 18A#2E500006B600
(1541515772.406021) can0 242#5280FFFFFFFFFD
(1541515772.406022) can0 29C#0000FFFFFFFFFFFF
(1541515772.406023) can0 2BC#9456BEBB4BEC02B0
(1541515772.406024) can0 352#5C000000
(1541515772.406025) can0 45C#00000000
(1541515772.406025) can0 4AC#80
(1541515772.406026) can0 5DF#0084
(1541515772.406027) can0 3B7#FFFF7FCFFE40
(1541515772.406027) can0 12E#C780007FE0FFFF00
(1541515772.406028) can0 090#00000000
(1541515772.406029) can0 0C6#90DB80007FFFACEA
(1541515772.406030) can0 186#5D602E52E5FFF9
(1541515772.406030) can0 18A#2E500006B600
(1541515772.406032) can0 1F6#1E2081FF80FEFFFE
(1541515772.406033) can0 29A#00000000000003FC
(1541515772.406033) can0 2B7#00E0FFFE01
(1541515772.406034) can0 66A#2FFF600101C01F00
(1541515772.425528) can0 511#0013A5739ED525
(1541515772.425537) can0 5DA#FF7100004EFFFF00
(1541515772.425538) can0 648#FFFFF07FFE7FFE00
(1541515772.425539) can0 65C#FEFF
(1541515772.425540) can0 760#05624B2407670000
(1541515772.425542) can0 740#03224B3900000000
(1541515772.425543) can0 217#FEFFF8000000C0
(1541515772.425544) can0 2C6#FFFFFFFFFFF0
(1541515772.425545) can0 12E#C780007FE0FFFF00
(1541515772.425546) can0 090#00000000
(1541515772.425548) can0 0C6#90DB80007FFFAEE8
(1541515772.425549) can0 186#5D302E52E5FFF9
(1541515772.425550) can0 18A#2E500006B600
(1541515772.425551) can0 1F6#1E2081FF80FEFFFE
(1541515772.425552) can0 242#5280FFFFFFFFFD
(1541515772.425553) can0 29C#0000FFFFFFFFFFFF
(1541515772.425554) can0 354#0000000000000000
(1541515772.425555) can0 760#04624B397D000000
(1541515772.425556) can0 12E#C780017FD0FFFF00
(1541515772.425557) can0 090#00000000
(1541515772.425557) can0 0C6#90DB7FF67FFFB0F1
(1541515772.425559) can0 186#5D522E52E5FFF9
(1541515772.425559) can0 18A#2E500006B600
(1541515772.425560) can0 1F6#1E2081FF80FEFFFE
(1541515772.425561) can0 29A#00000000000004FB
(1541515772.446173) can0 2B7#00E0FFFE01
(1541515772.446176) can0 740#03224B3700000000
(1541515772.446178) can0 217#FEFFF8000000C0
(1541515772.446178) can0 2C6#FFFFFFFFFFF0
(1541515772.446179) can0 12E#C780017FD0FFFF00
(1541515772.446180) can0 090#00000000
(1541515772.446182) can0 0C6#90DB80007FFFB2E4
(1541515772.446183) can0 186#5D302E52E5FFF9
(1541515772.446183) can0 18A#2E500006B600
(1541515772.446184) can0 1F6#1E2081FF80FEFFFE
(1541515772.446185) can0 242#5280FFFFFFFFFD
(1541515772.446186) can0 29C#0000FFFFFFFFFFFF
(1541515772.446186) can0 352#5C000000
(1541515772.446187) can0 760#04624B377F000000
(1541515772.446188) can0 740#03224B0E00000000
(1541515772.446189) can0 12E#C780027FD0FFFF00
(1541515772.446190) can0 090#00000000
(1541515772.446190) can0 0C6#90DB80007FFFB4E2
(1541515772.446191) can0 186#5D522E52E5FFF9
(1541515772.446192) can0 18A#2E500006B600
(1541515772.446193) can0 1F6#1E2081FF80FEFFFE
(1541515772.446193) can0 29A#00000000000005FA
(1541515772.446194) can0 2B7#00E0FFFE01
(1541515772.446196) can0 575#1614
(1541515772.446197) can0 5D7#000003251B50C0
(1541515772.446198) can0 350#C715FA6314986485
(1541515772.465573) can0 55D#00D5600091800000
(1541515772.465577) can0 760#04624B0E00000000
(1541515772.465578) can0 740#03224B0B00000000
(1541515772.465579) can0 217#FEFFF8000000C0
(1541515772.465580) can0 2C6#FFFFFFFFFFF0
(1541515772.465581) can0 12E#C780027FD0FFFF00
(1541515772.465582) can0 090#00000000
(1541515772.465583) can0 0C6#90DB800A7FFFB6D6
(1541515772.465584) can0 186#5D2E2E52E5FFF9
(1541515772.465585) can0 18A#2E500006B600
(1541515772.465586) can0 1F6#1E2081FF80FEFFFE
(1541515772.465587) can0 242#5280FFFFFFFFFD
(1541515772.465588) can0 29C#0000FFFFFFFFFFFF
(1541515772.465589) can0 354#0000000000000000
(1541515772.465589) can0 552#1614
(1541515772.465590) can0 760#04624B0B7F000000
(1541515772.465591) can0 740#03224B0C00000000
(1541515772.465592) can0 12E#C780017FD0FFFF00
(1541515772.465592) can0 090#00000000
(1541515772.465593) can0 0C6#90DB7FF67FFFB8E9
(1541515772.465594) can0 186#5D602E52E5FFF9
(1541515772.465595) can0 18A#2E500006B600
(1541515772.465596) can0 1F6#1E2081FF80FEFFFE
(1541515772.465596) can0 29A#00000000000006F9
(1541515772.465597) can0 2B7#00E0FFFE01
(1541515772.485422) can0 5DE#0008000000000002
(1541515772.485425) can0 666#7D020000
(1541515772.485427) can0 760#05624B0C7FFE0000
(1541515772.485427) can0 653#00400800
(1541515772.485429) can0 740#03224B0600000000
(1541515772.485430) can0 217#FEFFF8000000C0
(1541515772.485430) can0 2C6#FFFFFFFFFFF0
(1541515772.485432) can0 12E#C780017FD0FFFF00
(1541515772.485432) can0 090#00000000
(1541515772.485433) can0 0C6#90DB80007FFFBADC
(1541515772.485434) can0 186#5D322E52E5FFF9
(1541515772.485435) can0 18A#2E500006B600
(1541515772.485436) can0 1F6#1E2081FF80FEFFFE
(1541515772.485436) can0 242#5280FFFFFFFFFD
(1541515772.485437) can0 29C#0000FFFFFFFFFFFF
(1541515772.485438) can0 352#5C000000
(1541515772.485439) can0 673#0018FFFFFFFF00
(1541515772.485439) can0 564#E8B0
(1541515772.485440) can0 760#07624B06003251B5
(1541515772.485441) can0 12E#C780007FE0FFFF00
(1541515772.485442) can0 090#00000000
(1541515772.485443) can0 0C6#90DB80007FFFBCDA
(1541515772.485443) can0 186#5D4E2E52E5FFF9
(1541515772.485445) can0 18A#2E500006B600
(1541515772.485445) can0 1F6#1E2081FF80FEFFFE
(1541515772.504451) can0 29A#00000000000007F8
(1541515772.504455) can0 2B7#00E0FFFE01
(1541515772.504456) can0 657#0000
(1541515772.504457) can0 500#028790B561
(1541515772.504458) can0 740#03224B0300000000
(1541515772.504459) can0 4F8#4A1030FFFF03FF00
(1541515772.504460) can0 217#FEFFF8000000C0
(1541515772.504461) can0 2C6#FFFFFFFFFFF0
(1541515772.504462) can0 12E#C780007FE0FFFF00
(1541515772.504463) can0 090#00000000
(1541515772.504464) can0 0C6#90DB800A7FFFBECE
(1541515772.504465) can0 186#5D302E52E5FFF9
(1541515772.504466) can0 18A#2E500006B600
(1541515772.504466) can0 1F6#1E2081FF80FEFFFE
(1541515772.504468) can0 242#5280FFFFFFFFFD
(1541515772.504469) can0 29C#0000FFFFFFFFFFFF
(1541515772.504470) can0 2BC#9452EEE544ED63EE
(1541515772.504470) can0 354#0000000000000000
(1541515772.504471) can0 45C#00000000
(1541515772.504472) can0 4AC#80
(1541515772.504472) can0 5DF#0084
(1541515772.504473) can0 3B7#FFFF7FCFFE40
(1541515772.504474) can0 6FB#5FC3FFFE00FF00FF
(1541515772.504475) can0 760#05624B03FFFF0000
(1541515772.504476) can0 740#03224B0000000000
(1541515772.504477) can0 12E#C780007FE0FFFF00
(1541515772.504477) can0 090#00000000
(1541515772.524080) can0 0C6#90DB7FF67FFFA001
(1541515772.524084) can0 186#5D522E52E5FFF9
(1541515772.524085) can0 18A#2E500006B600
(1541515772.524086) can0 1F6#1E2081FF80FEFFFE
(1541515772.524088) can0 29A#00000000000008F7
(1541515772.524088) can0 2B7#00E0FFFE01
(1541515772.524089) can0 66A#2FFF600101C01F00
(1541515772.524090) can0 511#00526E2C09E208
(1541515772.524091) can0 5DA#FF7100004EFFFF00
(1541515772.524092) can0 648#FFFFF07FFE7FFE00
(1541515772.524093) can0 65C#FEFF
(1541515772.524094) can0 217#FEFFF8000000C0
(1541515772.524094) can0 2C6#FFFFFFFFFFF0
(1541515772.524095) can0 760#05624B0000000000
(1541515772.524096) can0 090#00000000
(1541515772.524097) can0 0C6#90DB80007FFFA2F4
(1541515772.524098) can0 12E#C780007FE0FFFF00
(1541515772.524098) can0 186#5D3E2E52E5FFF9
(1541515772.524099) can0 18A#2E500006B600
(1541515772.524100) can0 1F6#1E2081FF80FEFFFE
(1541515772.524101) can0 242#5280FFFFFFFFFD
(1541515772.524102) can0 29C#0000FFFFFFFFFFFF
(1541515772.524102) can0 352#5C000000
(1541515772.524104) can0 740#03224BBB00000000
(1541515772.524104) can0 760#037F221200000000
(1541515772.544458) can0 12E#C780007FF0FFFF00
(1541515772.544462) can0 090#00000000
(1541515772.544463) can0 0C6#90DB80007FFFA4F2
(1541515772.544464) can0 186#5D522E52E5FFF9
(1541515772.544465) can0 18A#2E500006B600
(1541515772.544466) can0 1F6#1E2081FF80FEFFFE
(1541515772.544467) can0 29A#00000000000009F6
(1541515772.544468) can0 2B7#00E0FFFE01
(1541515772.544468) can0 740#03224B1000000000
(1541515772.544469) can0 760#037F221200000000
(1541515772.544470) can0 740#03224B1100000000
(1541515772.544471) can0 217#FEFFF8000000C0
(1541515772.544472) can0 2C6#FFFFFFFFFFF0
(1541515772.544473) can0 1F6#1E2081FF80FEFFFE
(1541515772.544474) can0 090#00000000
(1541515772.544474) can0 0C6#90DB80007FFFA6F0
(1541515772.544475) can0 12E#C780007FF0FFFF00
(1541515772.544476) can0 186#5D2E2E52E5FFF9
(1541515772.544477) can0 18A#2E500006B600
(1541515772.544478) can0 242#5280FFFFFFFFFD
(1541515772.544479) can0 29C#0000FFFFFFFFFFFF
(1541515772.544479) can0 354#0000000000000000
(1541515772.544480) can0 760#04624B1100000000
(1541515772.544481) can0 12E#C780007FE0FFFF00
(1541515772.544481) can0 090#00000000
(1541515772.564670) can0 0C6#90DB80007FFFA8EE
(1541515772.564674) can0 186#5D542E52E5FFF9
(1541515772.564675) can0 18A#2E500006B600
(1541515772.564676) can0 1F6#1E2081FF80FEFFFE
(1541515772.564678) can0 29A#0000000000000AF5
(1541515772.564678) can0 2B7#00E0FFFE01
(1541515772.564679) can0 575#17C4
(1541515772.564680) can0 5D7#000003251B50C0
(1541515772.564681) can0 350#C715FA6314986485
(1541515772.564682) can0 55D#00D5600091800000
(1541515772.564684) can0 217#FEFFF8000000C0
(1541515772.564685) can0 2C6#FFFFFFFFFFF0
(1541515772.564685) can0 12E#C780007FE0FFFF00
(1541515772.564686) can0 090#00000000
(1541515772.564687) can0 0C6#90DB800A7FFFAAE2
(1541515772.564688) can0 186#5D2E2E52E5FFF9
(1541515772.564688) can0 18A#2E500006B600
(1541515772.564689) can0 1F6#1E2081FF80FEFFFE
(1541515772.564690) can0 242#5280FFFFFFFFFD
(1541515772.564691) can0 29C#0000FFFFFFFFFFFF
(1541515772.564692) can0 352#5C000000
(1541515772.564692) can0 552#17C4
(1541515772.564693) can0 740#03224B3600000000
(1541515772.564694) can0 12E#C780027FD0FFFF00
(1541515772.564695) can0 090#00000000
(1541515772.564696) can0 0C6#90DB80007FFFACEA
(1541515772.584592) can0 186#5D522E52E5FFF9
(1541515772.584596) can0 18A#2E500006B600
(1541515772.584597) can0 1F6#1E2081FF80FEFFFE
(1541515772.584598) can0 29A#0000000000000BF4
(1541515772.584599) can0 2B7#00E0FFFE01
(1541515772.584600) can0 5DE#0008000000000002
(1541515772.584601) can0 666#7D020000
(1541515772.584602) can0 653#00400800
(1541515772.584603) can0 217#FEFFF8000000C0
(1541515772.584604) can0 2C6#FFFFFFFFFFF0
(1541515772.584605) can0 760#04624B367F000000
(1541515772.584606) can0 090#00000000
(1541515772.584607) can0 0C6#90DB80007FFFAEE8
(1541515772.584607) can0 12E#C780027FD0FFFF00
(1541515772.584608) can0 186#5D3E2E52E5FFF9
(1541515772.584609) can0 18A#2E500006B600
(1541515772.584610) can0 1F6#1E2081FF80FEFFFE
(1541515772.584611) can0 242#5280FFFFFFFFFD
(1541515772.584612) can0 29C#0000FFFFFFFFFFFF
(1541515772.584612) can0 354#0000000000000000
(1541515772.584613) can0 673#0018FFFFFFFF00
(1541515772.584614) can0 740#03224B0200000000
(1541515772.584614) can0 564#D970
(1541515772.584615) can0 12E#C780027FE0FFFF00
(1541515772.584616) can0 090#00000000
(1541515772.584617) can0 0C6#90DB7FF67FFFB0F1
(1541515772.604065) can0 186#5D522E52E5FFF9
(1541515772.604069) can0 18A#2E500006B600
(1541515772.604071) can0 1F6#1E2081FF80FEFFFE
(1541515772.604071) can0 29A#0000000000000CF3
(1541515772.604072) can0 2B7#00E0FFFE01
(1541515772.604073) can0 657#0000
(1541515772.604074) can0 500#0202C4697C
(1541515772.604075) can0 4F8#4A1030FFFF03FF00
(1541515772.604081) can0 760#05624B0200000000
(1541515772.604085) can0 740#0322012F00000000
(1541515772.604086) can0 217#FEFFF8000000C0
(1541515772.604087) can0 2C6#FFFFFFFFFFF0
(1541515772.604088) can0 12E#C780027FE0FFFF00
(1541515772.604089) can0 090#00000000
(1541515772.604090) can0 0C6#90DB80007FFFB2E4
(1541515772.604090) can0 186#5D302E52E5FFF9
(1541515772.604091) can0 18A#2E500006B600
(1541515772.604092) can0 1F6#1E2081FF80FEFFFE
(1541515772.604093) can0 242#5280FFFFFFFFFD
(1541515772.604094) can0 29C#0000FFFFFFFFFFFF
(1541515772.604095) can0 2BC#94AC545F7B413E29
(1541515772.604095) can0 352#5C000000
(1541515772.604096) can0 45C#00000000
(1541515772.604097) can0 4AC#80
(1541515772.604098) can0 5DF#0084
(1541515772.604099) can0 3B7#FFFF7FCFFE40
(1541515772.604100) can0 760#0462012F87000000
(1541515772.618623) can0 12E#C780027FF0FFFF00
(1541515772.618627) can0 090#00000000
(1541515772.618628) can0 0C6#90DB80007FFFB4E2
(1541515772.618629) can0 186#5D522E52E5FFF9
(1541515772.618631) can0 18A#2E500006B600
(1541515772.618632) can0 1F6#1E2081FF80FEFFFE
(1541515772.618633) can0 29A#0000000000000DF2
(1541515772.618634) can0 2B7#00E0FFFE01
(1541515772.618635) can0 66A#2FFF600101C01F00
(1541515772.618636) can0 511#009137E574EFEB
(1541515772.618637) can0 5DA#FF7100004EFFFF00
(1541515772.618638) can0 648#FFFFF07FFE7FFE00
(1541515772.618638) can0 65C#FEFF
(1541515772.618639) can0 740#03224B0100000000
(1541515772.618640) can0 217#FEFFF8000000C0
(1541515772.618641) can0 2C6#FFFFFFFFFFF0
(1541515772.618642) can0 12E#C780027FF0FFFF00
(1541515772.618642) can0 090#00000000
(1541515772.618643) can0 0C6#90DB800A7FFFB6D6
(1541515772.618644) can0 186#5D2E2E52E5FFF9
(1541515772.618645) can0 18A#2E500006B600
(1541515772.618646) can0 1F6#1E2081FF80FEFFFE
(1541515772.618646) can0 242#5280FFFFFFFFFD
(1541515772.618647) can0 29C#0000FFFFFFFFFFFF
(1541515772.618648) can0 354#0000000000000000
(1541515772.643574) can0 760#05624B0100000000
(1541515772.643579) can0 740#03224B3500000000
(1541515772.643580) can0 12E#C780027FE0FFFF00
(1541515772.643581) can0 090#00000000
(1541515772.643582) can0 0C6#90DB7FF67FFFB8E9
(1541515772.643583) can0 186#5D622E52E5FFF9
(1541515772.643583) can0 18A#2E500006B600
(1541515772.643584) can0 1F6#1E2081FF80FEFFFE
(1541515772.643585) can0 29A#0000000000000EF1
(1541515772.643586) can0 2B7#00E0FFFE01
(1541515772.643587) can0 760#1008624B350CC020
(1541515772.643587) can0 740#3000000000000000
(1541515772.643588) can0 760#2100000000000000
(1541515772.643589) can0 217#FEFFF8000000C0
(1541515772.643590) can0 2C6#FFFFFFFFFFF0
(1541515772.643590) can0 12E#C780027FE0FFFF00
(1541515772.643591) can0 090#00000000
(1541515772.643592) can0 0C6#90DB80007FFFBADC
(1541515772.643593) can0 186#5D302E52E5FFF9
(1541515772.643593) can0 18A#2E500006B600
(1541515772.643594) can0 1F6#1E2081FF80FEFFFE
(1541515772.643595) can0 242#5280FFFFFFFFFD
(1541515772.643596) can0 29C#0000FFFFFFFFFFFF
(1541515772.643597) can0 352#5C000000
(1541515772.643598) can0 740#0322010000000000
(1541515772.655957) can0 760#0562010090DB0000
(1541515772.655962) can0 12E#C780027FE0FFFF00
(1541515772.655963) can0 090#00000000
(1541515772.655964) can0 0C6#90DB80007FFFBCDA
(1541515772.655965) can0 186#5D4E2E52E5FFF9
(1541515772.655966) can0 18A#2E500006B600
(1541515772.655967) can0 1F6#1E2081FF80FEFFFE
(1541515772.655967) can0 29A#0000000000000FF0
(1541515772.655968) can0 2B7#00E0FFFE01
(1541515772.655969) can0 575#2034
(1541515772.655970) can0 5D7#000003251B50C0
(1541515772.655971) can0 350#C715FA6314986485
(1541515772.655972) can0 55D#00D5600091800000
(1541515772.655973) can0 740#03224B0700000000
(1541515772.655974) can0 217#FEFFF8000000C0
(1541515772.655974) can0 2C6#FFFFFFFFFFF0
(1541515772.655975) can0 760#04624B077E000000
(1541515772.655976) can0 090#00000000
(1541515772.655977) can0 0C6#90DB80007FFFBED8
(1541515772.655978) can0 12E#C780027FE0FFFF00
(1541515772.655978) can0 186#5D302E52E5FFF9
(1541515772.655979) can0 18A#2E500006B600
(1541515772.655980) can0 1F6#1E2081FF80FEFFFE
(1541515772.655981) can0 242#5280FFFFFFFFFD
(1541515772.655981) can0 29C#0000FFFFFFFFFFFF
(1541515772.675764) can0 354#0000000000000000
(1541515772.675767) can0 552#2034
(1541515772.675769) can0 740#03224B0400000000
(1541515772.675770) can0 12E#C780027FE0FFFF00
(1541515772.675771) can0 090#00000000
(1541515772.675771) can0 0C6#90DB80007FFFA0F6
(1541515772.675773) can0 186#5D522E52E5FFF9
(1541515772.675773) can0 18A#2E500006B600
(1541515772.675774) can0 1F6#1E2081FF80FEFFFE
(1541515772.675775) can0 29A#00000000000000FF
(1541515772.675776) can0 2B7#00E0FFFE01
(1541515772.675777) can0 5DE#0008000000000002
(1541515772.675778) can0 666#7D020000
(1541515772.675779) can0 760#05624B0400000000
(1541515772.675779) can0 653#00400800
(1541515772.675780) can0 740#03224B2400000000
(1541515772.675781) can0 217#FEFFF8000000C0
(1541515772.675782) can0 2C6#FFFFFFFFFFF0
(1541515772.675783) can0 12E#C780027FE0FFFF00
(1541515772.675784) can0 090#00000000
(1541515772.675785) can0 0C6#90DB800A7FFFA2EA
(1541515772.675786) can0 186#5D2E2E52E5FFF9
(1541515772.675787) can0 18A#2E500006B600
(1541515772.675788) can0 1F6#1E2081FF80FEFFFE
(1541515772.675789) can0 242#5280FFFFFFFFFD
(1541515772.675790) can0 29C#0000FFFFFFFFFFFF
(1541515772.695824) can0 352#5C000000
(1541515772.695829) can0 673#0018FFFFFFFF00
(1541515772.695830) can0 564#CE90
(1541515772.695831) can0 12E#C780027FF0FFFF00
(1541515772.695832) can0 090#00000000
(1541515772.695833) can0 0C6#90DB80007FFFA4F2
(1541515772.695834) can0 186#5D622E52E5FFF9
(1541515772.695835) can0 18A#2E500006B600
(1541515772.695836) can0 1F6#1E2081FF80FEFFFE
(1541515772.695838) can0 29A#00000000000001FE
(1541515772.695839) can0 2B7#00E0FFFE01
(1541515772.695840) can0 657#0000
(1541515772.695840) can0 500#02AE378A03
(1541515772.695841) can0 4F8#4A1030FFFF03FF00
(1541515772.695842) can0 760#05624B2407670000
(1541515772.695843) can0 740#03224B3900000000
(1541515772.695844) can0 217#FEFFF8000000C0
(1541515772.695845) can0 2C6#FFFFFFFFFFF0
(1541515772.695846) can0 12E#C780027FF0FFFF00
(1541515772.695847) can0 090#00000000
(1541515772.695848) can0 0C6#90DB7FF67FFFA6FB
(1541515772.695849) can0 186#5D302E52E5FFF9
(1541515772.695849) can0 18A#2E500006B600
(1541515772.695850) can0 1F6#1E2081FF80FEFFFE
(1541515772.695851) can0 242#5280FFFFFFFFFD
(1541515772.695852) can0 29C#0000FFFFFFFFFFFF
(1541515772.714515) can0 2BC#9434C5C4FE52ACE5
(1541515772.714522) can0 354#0000000000000000
(1541515772.714523) can0 45C#00000000
(1541515772.714524) can0 4AC#80
(1541515772.714525) can0 5DF#0084
(1541515772.714526) can0 3B7#FFFF7FCFFE40
(1541515772.714527) can0 760#04624B397D000000
(1541515772.714528) can0 12E#C780027FF0FFFF00
(1541515772.714529) can0 090#00000000
(1541515772.714530) can0 0C6#90DB80007FFFA8EE
(1541515772.714531) can0 186#5D522E52E5FFF9
(1541515772.714532) can0 18A#2E500006B600
(1541515772.714532) can0 1F6#1E2081FF80FEFFFE
(1541515772.714533) can0 29A#00000000000002FD
(1541515772.714534) can0 2B7#00E0FFFE01
(1541515772.714535) can0 66A#2FFF600101C01F00
(1541515772.714536) can0 511#00D0009EDFFCCE
(1541515772.714537) can0 5DA#FF7100004EFFFF00
(1541515772.714539) can0 648#FFFFF07FFE7FFE00
(1541515772.714540) can0 65C#FEFF
(1541515772.714541) can0 740#03224B3700000000
(1541515772.714542) can0 646#03FFFFFFFFFFFFF0
(1541515772.714543) can0 217#FEFFF8000000C0
(1541515772.714543) can0 2C6#FFFFFFFFFFF0
(1541515772.714544) can0 12E#C780027FF0FFFF00
(1541515772.714545) can0 090#00000000
(1541515772.734932) can0 0C6#90DB800A7FFFAAE2
(1541515772.734937) can0 186#5D2E2E52E5FFF9
(1541515772.734938) can0 18A#2E500006B600
(1541515772.734939) can0 1F6#1E2081FF80FEFFFE
(1541515772.734939) can0 242#5280FFFFFFFFFD
(1541515772.734941) can0 29C#0000FFFFFFFFFFFF
(1541515772.734942) can0 352#5C000000
(1541515772.734943) can0 760#04624B377F000000
(1541515772.734943) can0 740#03224B0E00000000
(1541515772.734944) can0 12E#C780027FE0FFFF00
(1541515772.734945) can0 090#00000000
(1541515772.734946) can0 0C6#90DB80007FFFACEA
(1541515772.734947) can0 186#5D522E52E5FFF9
(1541515772.734948) can0 18A#2E500006B600
(1541515772.734949) can0 1F6#1E2081FF80FEFFFE
(1541515772.734950) can0 29A#00000000000003FC
(1541515772.734951) can0 2B7#00E0FFFE01
(1541515772.734951) can0 760#04624B0E00000000
(1541515772.734953) can0 740#03224B0B00000000
(1541515772.734953) can0 217#FEFFF8000000C0
(1541515772.734954) can0 2C6#FFFFFFFFFFF0
(1541515772.734955) can0 12E#C780027FE0FFFF00
(1541515772.734956) can0 090#00000000
(1541515772.734957) can0 0C6#90DB80007FFFAEE8
(1541515772.734957) can0 186#5D3E2E52E5FFF9
(1541515772.754566) can0 18A#2E500006B600
(1541515772.754570) can0 1F6#1E2081FF80FEFFFE
(1541515772.754570) can0 242#5280FFFFFFFFFD
(1541515772.754571) can0 29C#0000FFFFFFFFFFFF
(1541515772.754572) can0 354#0000000000000000
(1541515772.754573) can0 760#04624B0B7F000000
(1541515772.754574) can0 740#03224B0C00000000
(1541515772.754575) can0 12E#C780027FD0FFFF00
(1541515772.754576) can0 090#00000000
(1541515772.754578) can0 0C6#90DB7FF67FFFB0F1
(1541515772.754579) can0 186#5D522E52E5FFF9
(1541515772.754580) can0 18A#2E500006B600
(1541515772.754580) can0 1F6#1E2081FF80FEFFFE
(1541515772.754581) can0 29A#00000000000004FB
(1541515772.754583) can0 2B7#00E0FFFE01
(1541515772.754584) can0 575#2EE4
(1541515772.754585) can0 5D7#000003251B50C0
(1541515772.754586) can0 350#C715FA6314986485
(1541515772.754587) can0 55D#00D5600091800000
(1541515772.754589) can0 760#05624B0C7FFE0000
(1541515772.754589) can0 740#03224B0600000000
(1541515772.754590) can0 217#FEFFF8000000C0
(1541515772.754591) can0 2C6#FFFFFFFFFFF0
(1541515772.754592) can0 12E#C780027FD0FFFF00
(1541515772.754593) can0 090#00000000
(1541515772.774646) can0 0C6#90DB800A7FFFB2DA
(1541515772.774650) can0 186#5D302E52E5FFF9
(1541515772.774651) can0 18A#2E500006B600
(1541515772.774652) can0 1F6#1E2081FF80FEFFFE
(1541515772.774653) can0 242#5280FFFFFFFFFD
(1541515772.774654) can0 29C#0000FFFFFFFFFFFF
(1541515772.774655) can0 352#5C000000
(1541515772.774656) can0 552#2EE4
(1541515772.774657) can0 760#07624B06003251B5
(1541515772.774657) can0 740#03224B0300000000
(1541515772.774659) can0 12E#C780027FD0FFFF00
(1541515772.774660) can0 090#00000000
(1541515772.774660) can0 0C6#90DB80007FFFB4E2
(1541515772.774661) can0 186#5D522E52E5FFF9
(1541515772.774662) can0 18A#2E500006B600
(1541515772.774663) can0 1F6#1E2081FF80FEFFFE
(1541515772.774664) can0 29A#00000000000005FA
(1541515772.774665) can0 2B7#00E0FFFE01
(1541515772.774666) can0 5DE#0008000000000002
(1541515772.774667) can0 666#7D020000
(1541515772.774668) can0 653#00400800
(1541515772.774669) can0 217#FEFFF8000000C0
(1541515772.774671) can0 2C6#FFFFFFFFFFF0
(1541515772.774672) can0 760#05624B03FFFF0000
(1541515772.774673) can0 090#00000000
(1541515772.774674) can0 0C6#90DB80007FFFB6E0
(1541515772.794166) can0 12E#C780027FD0FFFF00
(1541515772.794176) can0 186#5D2E2E52E5FFF9
(1541515772.794177) can0 18A#2E500006B600
(1541515772.794178) can0 1F6#1E2081FF80FEFFFE
(1541515772.794180) can0 242#5280FFFFFFFFFD
(1541515772.794181) can0 29C#0000FFFFFFFFFFFF
(1541515772.794183) can0 354#0000000000000000
(1541515772.794185) can0 673#0018FFFFFFFF00
(1541515772.794186) can0 740#03224B0000000000
(1541515772.794188) can0 564#DA80
(1541515772.794189) can0 12E#C780007FE0FFFF00
(1541515772.794190) can0 090#00000000
(1541515772.794192) can0 0C6#90DB7FF67FFFB8E9
(1541515772.794193) can0 186#5D522E52E5FFF9
(1541515772.794195) can0 18A#2E500006B600
(1541515772.794197) can0 1F6#1E2081FF80FEFFFE
(1541515772.794198) can0 29A#00000000000006F9
(1541515772.794200) can0 2B7#00E0FFFE01
(1541515772.794201) can0 657#0000
(1541515772.794205) can0 500#0237CFF2EE
(1541515772.794206) can0 4F8#4A1030FFFF03FF00
(1541515772.794208) can0 760#05624B0000000000
(1541515772.794209) can0 740#03224BBB00000000
(1541515772.794211) can0 760#037F221200000000
(1541515772.794212) can0 217#FEFFF8000000C0
(1541515772.794213) can0 2C6#FFFFFFFFFFF0
(1541515772.806135) can0 12E#C780007FE0FFFF00
(1541515772.806143) can0 090#00000000
(1541515772.806144) can0 0C6#90DB80007FFFBADC
(1541515772.806145) can0 186#5D3E2E52E5FFF9
(1541515772.806146) can0 18A#2E500006B600
(1541515772.806147) can0 1F6#1E2081FF80FEFFFE
(1541515772.806148) can0 242#5280FFFFFFFFFD
(1541515772.806149) can0 29C#0000FFFFFFFFFFFF
(1541515772.806150) can0 2BC#948E502F853165E0
(1541515772.806151) can0 352#5C000000
(1541515772.806152) can0 45C#00000000
(1541515772.806153) can0 740#03224B1000000000
(1541515772.806154) can0 4AC#80
(1541515772.806155) can0 5DF#0084
(1541515772.806156) can0 760#037F221200000000
(1541515772.806157) can0 3B7#FFFF7FCFFE40
(1541515772.806158) can0 740#03224B1100000000
(1541515772.806159) can0 12E#C780007FE0FFFF00
(1541515772.806161) can0 090#00000000
(1541515772.806162) can0 0C6#90DB80007FFFBCDA
(1541515772.806163) can0 186#5D542E52E5FFF9
(1541515772.806164) can0 18A#2E500006B600
(1541515772.806165) can0 1F6#1E2081FF80FEFFFE
(1541515772.806166) can0 29A#00000000000007F8
(1541515772.806167) can0 2B7#00E0FFFE01
(1541515772.806169) can0 66A#2FFF600101C01F00
(1541515772.833528) can0 511#000FC9574A09B1
(1541515772.833533) can0 5DA#FF7100004EFFFF00
(1541515772.833534) can0 648#FFFFF07FFE7FFE00
(1541515772.833535) can0 65C#FEFF
(1541515772.833536) can0 760#04624B1100000000
(1541515772.833537) can0 217#FEFFF8000000C0
(1541515772.833538) can0 2C6#FFFFFFFFFFF0
(1541515772.833540) can0 12E#C780007FE0FFFF00
(1541515772.833540) can0 090#00000000
(1541515772.833541) can0 0C6#90DB80007FFFBED8
(1541515772.833542) can0 186#5D2E2E52E5FFF9
(1541515772.833543) can0 18A#2E500006B600
(1541515772.833544) can0 1F6#1E2081FF80FEFFFE
(1541515772.833545) can0 242#5280FFFFFFFFFD
(1541515772.833546) can0 29C#0000FFFFFFFFFFFF
(1541515772.833547) can0 354#0000000000000000
(1541515772.833549) can0 12E#C780027FD0FFFF00
(1541515772.833550) can0 090#00000000
(1541515772.833551) can0 0C6#90DB80007FFFA0F6
(1541515772.833552) can0 186#5D522E52E5FFF9
(1541515772.833553) can0 18A#2E500006B600
(1541515772.833554) can0 1F6#1E2081FF80FEFFFE
(1541515772.833555) can0 29A#00000000000008F7
(1541515772.833555) can0 2B7#00E0FFFE01
(1541515772.833556) can0 740#03224B3600000000
(1541515772.853714) can0 217#FEFFF8000000C0
(1541515772.853718) can0 2C6#FFFFFFFFFFF0
(1541515772.853719) can0 12E#C780027FD0FFFF00
(1541515772.853720) can0 090#00000000
(1541515772.853721) can0 0C6#90DB800A7FFFA2EA
(1541515772.853722) can0 186#5D2E2E52E5FFF9
(1541515772.853723) can0 18A#2E500006B600
(1541515772.853724) can0 1F6#1E2081FF80FEFFFE
(1541515772.853725) can0 242#5280FFFFFFFFFD
(1541515772.853727) can0 29C#0000FFFFFFFFFFFF
(1541515772.853727) can0 352#5C000000
(1541515772.853729) can0 760#04624B367F000000
(1541515772.853729) can0 12E#C780027FD0FFFF00
(1541515772.853730) can0 090#00000000
(1541515772.853731) can0 0C6#90DB7FF67FFFA4FD
(1541515772.853732) can0 186#5D622E52E5FFF9
(1541515772.853733) can0 18A#2E500006B600
(1541515772.853734) can0 1F6#1E2081FF80FEFFFE
(1541515772.853735) can0 29A#00000000000009F6
(1541515772.853736) can0 2B7#00E0FFFE01
(1541515772.853737) can0 575#3434
(1541515772.853738) can0 5D7#000003251B50C0
(1541515772.853739) can0 350#C715FA6314986485
(1541515772.853740) can0 55D#00D5600091800000
(1541515772.853741) can0 740#03224B0200000000
(1541515772.853741) can0 217#FEFFF8000000C0
(1541515772.873951) can0 2C6#FFFFFFFFFFF0
(1541515772.873955) can0 12E#C780027FD0FFFF00
(1541515772.873956) can0 090#00000000
(1541515772.873957) can0 0C6#90DB80007FFFA6F0
(1541515772.873958) can0 186#5D302E52E5FFF9
(1541515772.873959) can0 18A#2E500006B600
(1541515772.873960) can0 1F6#1E2081FF80FEFFFE
(1541515772.873961) can0 242#5280FFFFFFFFFD
(1541515772.873961) can0 29C#0000FFFFFFFFFFFF
(1541515772.873962) can0 354#0000000000000000
(1541515772.873963) can0 552#3434
(1541515772.873964) can0 760#05624B0200000000
(1541515772.873965) can0 740#0322012F00000000
(1541515772.873966) can0 12E#C780027FD0FFFF00
(1541515772.873967) can0 090#00000000
(1541515772.873967) can0 0C6#90DB80007FFFA8EE
(1541515772.873968) can0 186#5D522E52E5FFF9
(1541515772.873970) can0 18A#2E500006B600
(1541515772.873971) can0 1F6#1E2081FF80FEFFFE
(1541515772.873972) can0 29A#0000000000000AF5
(1541515772.873973) can0 2B7#00E0FFFE01
(1541515772.873974) can0 5DE#0008000000000002
(1541515772.873975) can0 666#7D020000
(1541515772.873976) can0 653#00400800
(1541515772.873977) can0 217#FEFFF8000000C0
(1541515772.873978) can0 2C6#FFFFFFFFFFF0
(1541515772.893516) can0 760#0462012F87000000
(1541515772.893522) can0 090#00000000
(1541515772.893524) can0 0C6#90DB800A7FFFAAE2
(1541515772.893526) can0 12E#C780027FD0FFFF00
(1541515772.893527) can0 186#5D302E52E5FFF9
(1541515772.893528) can0 18A#2E500006B600
(1541515772.893531) can0 1F6#1E2081FF80FEFFFE
(1541515772.893532) can0 242#5280FFFFFFFFFD
(1541515772.893534) can0 29C#0000FFFFFFFFFFFF
(1541515772.893535) can0 352#5C000000
(1541515772.893536) can0 673#0018FFFFFFFF00
(1541515772.893538) can0 740#03224B0100000000
(1541515772.893539) can0 564#E140
(1541515772.893540) can0 12E#C780007FE0FFFF00
(1541515772.893541) can0 090#00000000
(1541515772.893542) can0 0C6#90DB80007FFFACEA
(1541515772.893544) can0 186#5D4E2E52E5FFF9
(1541515772.893546) can0 18A#2E500006B600
(1541515772.893547) can0 1F6#1E2081FF80FEFFFE
(1541515772.893548) can0 29A#0000000000000BF4
(1541515772.893549) can0 2B7#00E0FFFE01
(1541515772.893550) can0 657#0000
(1541515772.893552) can0 500#02B6BF1B43
(1541515772.893554) can0 4F8#4A1030FFFF03FF00
(1541515772.893556) can0 760#05624B0100000000
(1541515772.893557) can0 740#03224B3500000000
(1541515772.906066) can0 217#FEFFF8000000C0
(1541515772.906072) can0 2C6#FFFFFFFFFFF0
(1541515772.906073) can0 12E#C780007FE0FFFF00
(1541515772.906075) can0 090#00000000
(1541515772.906076) can0 0C6#90DB80007FFFAEE8
(1541515772.906078) can0 186#5D302E52E5FFF9
(1541515772.906079) can0 18A#2E500006B600
(1541515772.906080) can0 1F6#1E2081FF80FEFFFE
(1541515772.906081) can0 242#5280FFFFFFFFFD
(1541515772.906083) can0 29C#0000FFFFFFFFFFFF
(1541515772.906085) can0 2BC#9427BE7EA3249ADD
(1541515772.906086) can0 354#0000000000000000
(1541515772.906087) can0 45C#00000000
(1541515772.906088) can0 4AC#80
(1541515772.906089) can0 5DF#0084
(1541515772.906091) can0 3B7#FFFF7FCFFE40
(1541515772.906093) can0 760#1008624B350CC020
(1541515772.906095) can0 12E#C780017FF0FFFF00
(1541515772.906096) can0 090#00000000
(1541515772.906098) can0 0C6#90DB7FF67FFFB0F1
(1541515772.906099) can0 186#5D602E52E5FFF9
(1541515772.906100) can0 18A#2E500006B600
(1541515772.906101) can0 1F6#1E2081FF80FEFFFE
(1541515772.906103) can0 29A#0000000000000CF3
(1541515772.906104) can0 2B7#00E0FFFE01
(1541515772.906105) can0 740#3000000000000000
(1541515772.925115) can0 66A#2FFF600101C01F00
(1541515772.925119) can0 511#004E9210B51694
(1541515772.925120) can0 5DA#FF7100004EFFFF00
(1541515772.925121) can0 648#FFFFF07FFE7FFE00
(1541515772.925122) can0 65C#FEFF
(1541515772.925123) can0 760#2100000000000000
(1541515772.925124) can0 740#0322010000000000
(1541515772.925125) can0 217#FEFFF8000000C0
(1541515772.925126) can0 2C6#FFFFFFFFFFF0
(1541515772.925127) can0 12E#C780017FF0FFFF00
(1541515772.925128) can0 090#00000000
(1541515772.925129) can0 0C6#90DB80007FFFB2E4
(1541515772.925130) can0 186#5D302E52E5FFF9
(1541515772.925131) can0 18A#2E500006B600
(1541515772.925132) can0 1F6#1E2081FF80FEFFFE
(1541515772.925133) can0 242#5280FFFFFFFFFD
(1541515772.925134) can0 29C#0000FFFFFFFFFFFF
(1541515772.925136) can0 352#5C000000
(1541515772.925137) can0 760#0562010090DB0000
(1541515772.925138) can0 740#03224B0700000000
(1541515772.925139) can0 12E#C780027FF0FFFF00
(1541515772.925140) can0 090#00000000
(1541515772.925141) can0 0C6#90DB80007FFFB4E2
(1541515772.925142) can0 186#5D522E52E5FFF9
(1541515772.925143) can0 18A#2E500006B600
(1541515772.945952) can0 1F6#1E2081FF80FEFFFE
(1541515772.945956) can0 29A#0000000000000DF2
(1541515772.945957) can0 2B7#00E0FFFE01
(1541515772.945958) can0 217#FEFFF8000000C0
(1541515772.945959) can0 2C6#FFFFFFFFFFF0
(1541515772.945960) can0 760#04624B077E000000
(1541515772.945961) can0 090#00000000
(1541515772.945962) can0 0C6#90DB800A7FFFB6D6
(1541515772.945963) can0 12E#C780027FF0FFFF00
(1541515772.945964) can0 186#5D302E52E5FFF9
(1541515772.945965) can0 18A#2E500006B600
(1541515772.945966) can0 1F6#1E2081FF80FEFFFE
(1541515772.945966) can0 242#5280FFFFFFFFFD
(1541515772.945967) can0 29C#0000FFFFFFFFFFFF
(1541515772.945968) can0 354#0000000000000000
(1541515772.945969) can0 740#03224B0400000000
(1541515772.945971) can0 12E#C780017FF0FFFF00
(1541515772.945972) can0 090#00000000
(1541515772.945973) can0 0C6#90DB7FF67FFFB8E9
(1541515772.945974) can0 186#5D4E2E52E5FFF9
(1541515772.945975) can0 18A#2E500006B600
(1541515772.945976) can0 1F6#1E2081FF80FEFFFE
(1541515772.945977) can0 29A#0000000000000EF1
(1541515772.945978) can0 2B7#00E0FFFE01
